Time [s],Channel 0,Channel 1,Channel 2,Channel 3
0.000000000,0,0,0,0
0.000113000,0,0,1,0
0.001426800,0,0,1,1
0.002096900,0,1,1,1
0.002326500,0,1,0,1
0.002703900,1,1,0,1
0.003012500,0,1,0,1
0.003183500,0,1,0,0
0.004765300,0,1,1,0
0.005317400,0,0,1,0
0.005617000,0,0,1,1
0.005715100,1,0,1,1
0.006007700,1,1,1,1
0.007212400,0,1,1,1
0.007379300,0,1,1,0
0.007413200,0,1,0,0
0.007571300,1,1,0,0
0.007634600,1,1,1,0
0.008935100,1,1,1,1
0.009224400,1,0,1,1
0.009661200,1,1,1,1
0.010562700,1,1,0,1
0.010580900,0,1,0,1
0.010658400,1,1,0,1
0.011026800,1,1,0,0
0.011531600,1,1,1,0
0.012090800,1,0,1,0
0.012229000,1,1,1,0
0.012324600,1,1,1,1
0.012582500,0,1,1,1
0.013565200,1,1,1,1
0.013975900,1,1,0,1
0.014161800,1,0,0,1
0.014416400,1,0,1,1
0.014668900,1,0,1,0
0.014750400,0,0,1,0
0.014916600,0,1,1,0
0.015512500,0,1,0,0
0.015749500,0,0,0,0
0.016122500,0,0,0,1
0.016585500,1,0,0,1
0.016882000,1,0,1,1
0.017485600,0,0,1,1
0.017579800,0,1,1,1
0.017731700,0,1,0,1
0.018184500,0,1,0,0
0.018333300,0,1,1,0
0.018651600,0,0,1,0
0.018659400,0,0,1,1
0.018768800,0,1,1,1
0.019024200,0,1,0,1
0.019327300,1,1,0,1
0.019889100,1,1,0,0
0.020013700,1,1,1,0
0.020126300,0,1,1,0
0.020695500,0,1,1,1
0.021282100,0,0,1,1
0.021485700,1,0,1,1
0.021691600,1,1,1,1
0.022150500,1,1,1,0
0.022802800,1,1,0,0
0.023088500,0,1,0,0
0.023350700,0,1,1,0
0.023386000,0,1,1,1
0.023455700,0,0,1,1
0.024249400,0,1,1,1
0.024294700,0,1,1,0
0.024543700,0,1,0,0
0.024998100,1,1,0,0
0.025250300,1,0,0,0
0.025451200,1,0,1,0
0.026020000,1,0,1,1
0.026134600,0,0,1,1
0.027325700,0,0,0,1
0.028018900,1,0,0,1
0.028065000,1,0,0,0
0.028414000,1,0,1,0
0.028486600,1,1,1,0
0.028990100,1,1,0,0
0.029686000,1,0,0,0
0.030922200,1,0,0,1
0.031090900,0,0,0,1
0.031205700,1,0,0,1
0.031348900,1,0,1,1
0.031963200,1,1,1,1
0.032903500,0,1,1,1
0.032947600,0,1,0,1
0.033313800,0,1,0,0
0.033369800,0,1,1,0
0.034436200,0,1,0,0
0.034640000,0,1,0,1
0.035165000,0,0,0,1
0.035677400,1,0,0,1
0.035872700,1,0,0,0
0.035970000,1,0,1,0
0.037553300,0,0,1,0
0.037814000,1,0,1,0
0.038123000,1,0,1,1
0.038418400,1,1,1,1
0.038782400,1,1,0,1
0.039000300,1,1,1,1
0.040208600,1,1,1,0
0.040552300,1,1,0,0
0.040670400,0,1,0,0
0.041336700,0,0,0,0
0.041616700,1,0,0,0
0.041954800,1,0,1,0
0.042234000,1,1,1,0
0.042499200,1,1,1,1
0.042762600,1,1,0,1
0.044182700,1,0,0,1
0.044726900,1,1,0,1
0.044789100,1,1,0,0
0.044844500,0,1,0,0
0.044881800,1,1,0,0
0.045388700,1,1,1,0
0.046007900,1,1,0,0
0.046709500,1,1,1,0
0.046833500,0,1,1,0
0.047355400,0,0,1,0
0.047428200,1,0,1,0
0.047938000,1,0,1,1
0.047952000,1,0,1,0
0.048981100,1,0,0,0
0.049526200,0,0,0,0
0.049556500,0,1,0,0
0.050707900,0,1,0,1
0.051704500,0,1,1,1
0.051706100,0,0,1,1
0.052802600,1,0,1,1
0.053142600,1,0,0,1
0.053299100,1,0,1,1
0.053859200,1,0,1,0
0.053920200,1,1,1,0
0.055405300,1,1,0,0
0.055490300,1,0,0,0
0.055774400,0,0,0,0
0.056075900,1,0,0,0
0.056291400,1,0,0,1
0.057018800,1,1,0,1
0.057076000,0,1,0,1
0.057356300,0,1,1,1
0.057565300,1,1,1,1
0.057856400,1,1,1,0
0.059030400,1,1,0,0
0.059153300,1,1,0,1
0.059573800,1,0,0,1
0.059597300,0,0,0,1
0.059697600,0,0,1,1
0.060391400,0,1,1,1
0.060926200,0,1,1,0
0.061077600,1,1,1,0
0.062548000,1,1,1,1
0.062623200,1,1,0,1
0.063123800,1,0,0,1
0.063465100,0,0,0,1
0.063684300,1,0,0,1
0.064255400,0,0,0,1
0.065170300,0,1,0,1
0.065394100,0,1,0,0
0.065737900,0,1,1,0
0.066110000,1,1,1,0
0.066855000,0,1,1,0
0.066941500,0,1,0,0
0.067144600,0,1,0,1
0.067457600,0,0,0,1
0.068395600,0,1,0,1
0.068583500,0,1,1,1
0.069505400,0,1,0,1
0.069857300,1,1,0,1
0.069868400,1,0,0,1
0.069952100,1,1,0,1
0.070148100,1,1,0,0
0.071566800,1,0,0,0
0.072049800,1,0,0,1
0.072242300,1,0,0,0
0.072476600,1,0,1,0
0.072842600,0,0,1,0
0.072843300,1,0,1,0
0.073485500,1,1,1,0
0.074017300,1,0,1,0
0.074813200,0,0,1,0
0.074848600,0,0,1,1
0.074931100,0,0,0,1
0.076000800,0,1,0,1
0.076046300,0,1,1,1
0.077245500,1,1,1,1
0.077789600,1,1,1,0
0.078310100,1,1,0,0
0.079164900,1,0,0,0
0.079872200,1,0,1,0
0.079940600,1,0,1,1
0.079947700,0,0,1,1
0.080879900,0,1,1,1
0.081665200,0,0,1,1
0.082621400,1,0,1,1
0.082646500,1,0,1,0
0.083139800,1,0,0,0
0.083499600,1,0,1,0
0.084012300,1,0,1,1
0.084353700,1,1,1,1
0.084389900,1,1,0,1
0.084467500,1,1,0,0
0.085629900,0,1,0,0
0.086732800,0,1,0,1
0.086816300,0,0,0,1
0.087300200,0,1,0,1
0.087510100,0,1,1,1
0.087532800,1,1,1,1
0.087679600,0,1,1,1
0.088496300,0,0,1,1
0.088650800,1,0,1,1
0.089030100,1,0,1,0
0.089080200,1,1,1,0
0.089482000,1,1,0,0
0.089887900,1,1,1,0
0.090995800,1,1,1,1
0.091136800,1,1,1,0
0.091597400,1,1,1,1
0.091700000,1,1,0,1
0.091887500,0,1,0,1
0.092106800,0,0,0,1
0.092805400,0,0,1,1
0.094289500,0,1,1,1
0.094469800,0,0,1,1
0.094624500,0,1,1,1
0.094695500,0,1,1,0
0.094982800,1,1,1,0
0.095007500,1,0,1,0
0.095084100,1,0,0,0
0.096053900,1,1,0,0
0.096305100,1,1,0,1
0.096872700,1,0,0,1
0.098101300,0,0,0,1
0.098264500,0,0,1,1
0.098460400,1,0,1,1
0.098684100,1,0,1,0
0.099546600,1,1,1,0
0.100500200,1,1,0,0
0.100661700,0,1,0,0
0.100696200,0,0,0,0
0.101557900,0,0,0,1
0.101575800,0,0,1,1
0.102945800,1,0,1,1
0.102972200,1,1,1,1
0.104180200,0,1,1,1
0.104403100,0,1,1,0
0.104572100,0,1,0,0
0.105531500,0,0,0,0
0.106739300,0,1,0,0
0.106846300,0,1,1,0
0.107073200,0,1,1,1
0.107176300,1,1,1,1
0.108066100,0,1,1,1
0.108601500,1,1,1,1
0.109132300,1,1,1,0
0.109184300,1,0,1,0
0.109786900,1,0,0,0
0.109934000,1,0,0,1
0.109980600,1,1,0,1
0.110148300,1,1,0,0
0.110354800,0,1,0,0
0.111317600,0,1,0,1
0.111425400,0,0,0,1
0.111460200,0,1,0,1
0.111633100,0,1,1,1
0.112883900,0,1,1,0
0.112922200,0,0,1,0
0.113371400,1,0,1,0
0.113496700,1,1,1,0
0.113584000,1,1,0,0
0.113797000,0,1,0,0
0.114598300,1,1,0,0
0.114741300,1,0,0,0
0.114888900,1,0,0,1
0.115380000,1,0,0,0
0.115694300,1,0,1,0
0.116100500,0,0,1,0
0.116988700,0,1,1,0
0.117024400,1,1,1,0
0.117211200,1,1,1,1
0.118019600,1,1,0,1
0.118243500,0,1,0,1
0.118411800,0,1,0,0
0.118684800,0,0,0,0
0.119610300,0,0,1,0
0.120316900,0,0,0,0
0.120857200,0,0,1,0
0.121130200,0,0,1,1
0.121330300,0,1,1,1
0.121510900,1,1,1,1
0.121793600,0,1,1,1
0.121813900,1,1,1,1
0.123146500,1,1,0,1
0.123287600,1,1,1,1
0.123559900,1,1,1,0
0.124000300,1,0,1,0
0.124352900,1,0,1,1
0.124472700,1,1,1,1
0.124822800,0,1,1,1
0.124854000,0,1,1,0
0.125305100,0,1,1,1
0.125747000,1,1,1,1
0.126110900,1,0,1,1
0.126421000,1,0,0,1
0.126782100,1,0,0,0
0.127248800,1,0,1,0
0.127602300,1,0,1,1
0.128368100,1,1,1,1
0.128742300,0,1,1,1
0.129316300,0,1,0,1
0.129388500,0,1,0,0
0.130342800,0,0,0,0
0.130791600,1,0,0,0
0.130951200,1,0,0,1
0.131562500,1,0,1,1
0.131635600,1,0,0,1
0.132363700,1,1,0,1
0.132542500,1,0,0,1
0.133000500,1,1,0,1
0.133007600,1,0,0,1
0.133128900,1,1,0,1
0.133464500,1,1,1,1
0.133634100,0,1,1,1
0.133794900,1,1,1,1
0.133954500,0,1,1,1
0.134121600,0,1,1,0
0.135113500,0,1,0,0
0.135219400,0,0,0,0
0.135437200,1,0,0,0
0.135623800,0,0,0,0
0.136058700,0,0,0,1
0.137082300,0,1,0,1
0.137851000,0,0,0,1
0.138155000,1,0,0,1
0.138228700,1,0,1,1
0.139217100,1,0,1,0
0.139707500,1,0,1,1
0.140273700,0,0,1,1
0.140508200,0,1,1,1
0.140705100,0,1,0,1
0.140927000,0,0,0,1
0.141654400,0,0,0,0
0.141797500,0,0,1,0
0.141945700,1,0,1,0
0.142386700,1,0,0,0
0.142810400,1,1,0,0
0.143876500,1,1,0,1
0.144102800,1,1,0,0
0.144713200,1,1,0,1
0.144751400,0,1,0,1
0.145442200,0,1,1,1
0.145513300,0,1,0,1
0.145883200,0,0,0,1
0.146967700,0,1,0,1
0.147769000,1,1,0,1
0.147803500,1,1,0,0
0.148070000,1,1,1,0
0.149035500,1,1,0,0
0.149169900,1,0,0,0
0.149276800,1,0,0,1
0.149676000,1,0,1,1
0.150047300,1,0,0,1
0.150234600,0,0,0,1
0.150904900,0,0,1,1
0.151026100,0,0,1,0
0.152252000,0,0,0,0
0.152277700,0,1,0,0
0.153089900,0,1,1,0
0.153426200,1,1,1,0
0.153447200,1,1,1,1
0.153759900,1,0,1,1
0.154329400,1,0,0,1
0.154347300,0,0,0,1
0.154583000,0,0,0,0
0.155743000,0,0,1,0
0.156644800,0,1,1,0
0.156940800,1,1,1,0
0.157077900,1,1,1,1
0.157766600,0,1,1,1
0.158530100,0,1,1,0
0.158564100,0,1,1,1
0.158800800,0,1,0,1
0.159138900,0,1,0,0
0.159777400,1,1,0,0
0.159848400,1,0,0,0
0.161670300,1,0,1,0
0.162104300,1,0,1,1
0.162217900,1,1,1,1
0.162326800,0,1,1,1
0.162367900,0,1,1,0
0.162832600,0,1,0,0
0.163786400,0,0,0,0
0.163823000,0,1,0,0
0.163908200,0,1,1,0
0.163967600,0,1,1,1
0.164584100,0,1,0,1
0.164773100,1,1,0,1
0.165612900,1,1,1,1
0.165816400,1,1,0,1
0.165983100,1,0,0,1
0.166035900,1,0,1,1
0.166557100,0,0,1,1
0.166742400,0,0,1,0
0.166901400,1,0,1,0
0.167043200,1,1,1,0
0.167171700,0,1,1,0
0.167258900,0,1,1,1
0.167366700,0,1,0,1
0.167465400,0,1,1,1
0.167523500,1,1,1,1
0.168800800,1,1,1,0
0.168917800,0,1,1,0
0.168935100,1,1,1,0
0.169066600,1,1,1,1
0.169187400,0,1,1,1
0.169452400,1,1,1,1
0.169977200,1,1,1,0
0.170215600,1,0,1,0
0.170509100,1,0,0,0
0.170550700,1,0,0,1
0.171041500,1,0,0,0
0.171095300,1,0,0,1
0.171405000,1,0,0,0
0.172572700,1,1,0,0
0.172708000,0,1,0,0
0.172926800,0,1,0,1
0.172990900,0,0,0,1
0.173059700,0,0,1,1
0.173748800,0,0,1,0
0.173866300,0,0,0,0
0.174553000,1,0,0,0
0.174825000,1,0,1,0
0.175107500,0,0,1,0
0.175612200,0,0,1,1
0.175933500,0,1,1,1
0.176126700,0,1,1,0
0.176246300,0,0,1,0
0.176548300,0,0,1,1
0.176550600,0,0,0,1
0.177058500,1,0,0,1
0.177775900,0,0,0,1
0.178961500,0,1,0,1
0.179151500,0,1,0,0
0.179194600,0,1,1,0
0.179723700,0,0,1,0
0.179732400,1,0,1,0
0.179738400,1,1,1,0
0.180589200,1,0,1,0
0.180739600,0,0,1,0
0.181372400,0,0,1,1
0.181822800,0,0,0,1
0.182378700,0,1,0,1
0.182488000,0,1,0,0
0.182635400,1,1,0,0
0.182814900,1,0,0,0
0.182855700,1,1,0,0
0.183044800,1,1,1,0
0.183401800,1,0,1,0
0.183614500,1,0,1,1
0.183780300,1,0,0,1
0.184327200,1,0,1,1
0.184350100,1,0,1,0
0.184424500,0,0,1,0
0.184612600,0,0,1,1
0.184864900,0,1,1,1
0.184886100,0,0,1,1
0.184929800,0,0,0,1
0.185803600,0,1,0,1
0.186027200,0,0,0,1
0.186423100,1,0,0,1
0.186446700,1,1,0,1
0.186857500,1,1,0,0
0.186932400,1,1,1,0
0.187227600,1,0,1,0
0.188314900,1,0,0,0
0.189068300,0,0,0,0
0.189254800,0,1,0,0
0.189596600,0,1,1,0
0.189761500,0,1,0,0
0.189825200,0,1,0,1
0.190388100,0,0,0,1
0.191179600,0,0,1,1
0.191323200,1,0,1,1
0.191557300,1,1,1,1
0.191831000,1,1,0,1
0.191886400,0,1,0,1
0.192156400,0,1,0,0
0.192805100,1,1,0,0
0.194031600,1,0,0,0
0.194666400,0,0,0,0
0.195105700,0,0,1,0
0.195135500,0,0,1,1
0.195487300,1,0,1,1
0.195913600,1,1,1,1
0.197402000,1,1,1,0
0.197414100,1,1,0,0
0.197434300,1,0,0,0
0.198088100,0,0,0,0
0.198509100,0,1,0,0
0.199109600,0,1,0,1
0.199292300,0,1,0,0
0.199552900,0,1,1,0
0.199673000,0,1,0,0
0.199830200,0,0,0,0
0.200243800,1,0,0,0
0.200571200,0,0,0,0
0.200794400,0,0,1,0
0.201431400,0,0,1,1
0.201822900,0,1,1,1
0.203009200,1,1,1,1
0.203420600,1,1,1,0
0.203527700,1,0,1,0
0.204038600,1,0,0,0
0.204645000,0,0,0,0
0.205559400,0,0,1,0
0.206281000,0,0,1,1
0.206425800,0,0,0,1
0.206546700,0,1,0,1
0.206877300,1,1,0,1
0.207360300,1,1,1,1
0.208097800,0,1,1,1
0.208343200,1,1,1,1
0.208649100,1,0,1,1
0.209552500,1,0,1,0
0.209854600,1,0,1,1
0.210068100,0,0,1,1
0.210399900,0,0,0,1
0.211346200,1,0,0,1
0.211436000,1,0,1,1
0.211917100,1,1,1,1
0.212583700,1,1,1,0
0.212786200,0,1,1,0
0.213991900,0,1,0,0
0.214714400,0,1,1,0
0.214803100,0,0,1,0
0.215631100,0,0,0,0
0.215632500,0,0,1,0
0.215700800,0,0,1,1
0.215741900,1,0,1,1
0.215822300,0,0,1,1
0.216275400,0,0,1,0
0.216342300,1,0,1,0
0.218005500,1,1,1,0
0.218153300,0,1,1,0
0.218444700,0,0,1,0
0.218446800,0,0,0,0
0.219480700,0,0,0,1
0.219709800,0,1,0,1
0.220350900,0,1,1,1
0.220656800,1,1,1,1
0.221187400,1,1,1,0
0.221354300,1,0,1,0
0.222102400,1,0,0,0
0.223540200,0,0,0,0
0.224142200,0,0,0,1
0.224460100,0,0,1,1
0.224623500,0,1,1,1
0.225322500,1,1,1,1
0.225431600,1,1,0,1
0.225924000,1,1,0,0
0.226617500,1,1,0,1
0.226989900,1,1,0,0
0.227138300,1,0,0,0
0.227648200,0,0,0,0
0.227691500,0,0,1,0
0.227890800,1,0,1,0
0.228677100,0,0,1,0
0.228830600,0,1,1,0
0.229605600,1,1,1,0
0.229919800,1,1,0,0
0.230086200,1,1,0,1
0.231105700,0,1,0,1
0.231821800,0,0,0,1
0.232481300,0,1,0,1
0.232532600,0,0,0,1
0.232700900,0,1,0,1
0.232792500,0,1,0,0
0.232821600,0,1,1,0
0.233068900,1,1,1,0
0.233141900,1,1,0,0
0.233249800,1,1,0,1
0.233616200,1,1,0,0
0.234113900,1,1,0,1
0.234979300,1,1,1,1
0.235011300,0,1,1,1
0.235022900,0,1,1,0
0.235118900,1,1,1,0
0.235924600,1,0,1,0
0.236972600,0,0,1,0
0.237229200,0,0,0,0
0.237283200,1,0,0,0
0.237823300,1,0,1,0
0.238231300,1,0,1,1
0.238779200,1,0,0,1
0.238836700,1,1,0,1
0.239298400,1,0,0,1
0.239306400,0,0,0,1
0.239608300,0,0,1,1
0.240234800,0,0,1,0
0.241334700,0,0,0,0
0.241576200,0,1,0,0
0.242189000,0,0,0,0
0.242293300,1,0,0,0
0.242422500,1,0,1,0
0.242468300,1,0,1,1
0.243020700,1,1,1,1
0.243953700,0,1,1,1
0.244770200,0,1,1,0
0.244984600,0,0,1,0
0.245177500,0,0,0,0
0.245877900,0,1,0,0
0.246347500,0,1,0,1
0.246382900,1,1,0,1
0.246761700,1,1,0,0
0.247735800,0,1,0,0
0.247920100,0,1,1,0
0.248113900,0,1,0,0
0.248345900,0,1,1,0
0.248466300,0,1,1,1
0.248683600,0,1,1,0
0.248870000,0,0,1,0
0.249042000,0,0,1,1
0.249575100,1,0,1,1
0.249995300,1,1,1,1
0.250514600,1,0,1,1
0.250578900,1,0,1,0
0.250743400,0,0,1,0
0.250800000,0,1,1,0
0.251341800,0,1,0,0
0.252585200,0,0,0,0
0.252590300,0,0,0,1
0.252867200,1,0,0,1
0.254049700,1,0,1,1
0.254179900,0,0,1,1
0.254394500,1,0,1,1
0.254735800,1,1,1,1
0.255455500,1,1,1,0
0.255540800,1,1,1,1
0.256217400,1,0,1,1
0.256894000,1,0,0,1
0.257542600,0,0,0,1
0.257921500,0,0,1,1
0.258188900,0,1,1,1
0.258559300,0,1,1,0
0.260375700,1,1,1,0
0.260469400,1,0,1,0
0.260578000,1,0,0,0
0.260893900,1,0,1,0
0.261202200,1,0,1,1
0.261995500,1,0,0,1
0.262580300,1,0,0,0
0.263209000,0,0,0,0
0.263595000,0,1,0,0
0.263834900,0,0,0,0
0.264304800,0,1,0,0
0.264741100,0,1,1,0
0.265300100,0,1,1,1
0.265764000,0,0,1,1
0.266011300,1,0,1,1
0.266205600,1,0,0,1
0.266398500,1,0,1,1
0.266558600,1,1,1,1
0.266724000,1,0,1,1
0.267601700,1,0,0,1
0.268118000,0,0,0,1
0.268201900,0,0,0,0
0.268971000,0,0,1,0
0.269494200,0,1,1,0
0.269880400,0,1,1,1
0.270915100,1,1,1,1
0.271650900,1,0,1,1
0.271799000,1,0,0,1
0.272329200,1,0,0,0
0.272569400,0,0,0,0
0.272670800,0,1,0,0
0.274001800,1,1,0,0
0.274053200,1,1,0,1
0.274071700,1,1,1,1
0.275146800,1,1,0,1
0.275740000,1,0,0,1
0.276808200,1,0,1,1
0.276836400,0,0,1,1
0.277085700,0,0,1,0
0.277465200,0,0,0,0
0.278470100,0,0,0,1
0.278672700,0,1,0,1
0.278949100,1,1,0,1
0.279690800,1,1,1,1
0.280905200,1,0,1,1
0.281253800,0,0,1,1
0.281337900,0,0,1,0
0.282798300,0,0,0,0
0.283012900,0,0,0,1
0.283745300,1,0,0,1
0.283799000,1,1,0,1
0.283868800,0,1,0,1
0.283877600,0,1,1,1
0.283968700,0,1,0,1
0.284597800,0,1,1,1
0.284676900,0,1,1,0
0.285790800,0,1,1,1
0.286615400,0,0,1,1
0.286618200,1,0,1,1
0.286792900,1,0,0,1
0.287340900,1,0,0,0
0.288648500,1,0,0,1
0.289172100,1,1,0,1
0.289339200,0,1,0,1
0.290039400,0,1,1,1
0.290067100,1,1,1,1
0.290317000,1,1,0,1
0.290420500,1,1,0,0
0.290521500,1,0,0,0
0.290719000,1,1,0,0
0.291301800,1,1,0,1
0.291457800,0,1,0,1
0.291926500,0,1,0,0
0.292606300,0,1,1,0
0.292802700,0,0,1,0
0.293144300,0,0,1,1
0.293561100,0,1,1,1
0.294048300,1,1,1,1
0.294132500,1,1,0,1
0.294687000,0,1,0,1
0.295029800,1,1,0,1
0.295143700,1,1,0,0
0.295157500,1,0,0,0
0.295509400,1,0,1,0
0.295860200,0,0,1,0
0.296413000,0,0,0,0
0.296674000,0,1,0,0
0.296769700,0,1,1,0
0.296883700,0,1,0,0
0.297937400,0,1,0,1
0.298211300,0,1,0,0
0.298501000,1,1,0,0
0.298702000,1,0,0,0
0.299214600,1,1,0,0
0.299523600,1,1,0,1
0.299640000,1,1,1,1
0.300368900,1,0,1,1
0.300895400,0,0,1,1
0.301128200,0,0,0,1
0.301749500,0,0,0,0
0.302233800,0,0,0,1
0.302826300,0,0,0,0
0.303197600,0,1,0,0
0.303939700,0,1,1,0
0.303944700,1,1,1,0
0.304058300,1,0,1,0
0.304119300,1,0,0,0
0.304525600,1,0,0,1
0.304653100,0,0,0,1
0.305468400,0,0,1,1
0.306282800,0,0,1,0
0.306634200,0,1,1,0
0.306738700,1,1,1,0
0.307326200,1,1,1,1
0.308680000,1,1,0,1
0.308837100,0,1,0,1
0.309220000,0,0,0,1
0.309410300,0,0,0,0
0.309660500,0,1,0,0
0.310261900,0,1,1,0
0.310461600,1,1,1,0
0.311616400,1,1,1,1
0.312048600,1,0,1,1
0.312168300,0,0,1,1
0.313330000,0,0,0,1
0.313338700,0,0,1,1
0.313770200,0,0,1,0
0.313832100,0,1,1,0
0.314026500,0,1,1,1
0.314119300,1,1,1,1
0.315005400,1,1,0,1
0.315563000,0,1,0,1
0.316433300,0,0,0,1
0.316490400,0,0,1,1
0.316690600,0,0,1,0
0.316799900,1,0,1,0
0.317332100,1,1,1,0
0.317638900,1,0,1,0
0.317822000,1,0,0,0
0.318486200,1,0,0,1
0.320055800,0,0,0,1
0.320384300,0,1,0,1
0.320795600,0,1,1,1
0.321718900,0,1,1,0
0.322680500,1,1,1,0
0.323172700,1,1,1,1
0.323516900,1,0,1,1
0.323608600,1,1,1,1
0.323861500,1,1,0,1
0.324598500,1,1,0,0
0.324995200,1,0,0,0
0.325093200,0,0,0,0
0.325471000,0,0,1,0
0.326167400,0,0,0,0
0.326898300,0,0,0,1
0.327113500,0,0,0,0
0.327615600,0,1,0,0
0.328024000,1,1,0,0
0.328198000,0,1,0,0
0.328297400,0,1,1,0
0.328499200,0,1,1,1
0.328723500,0,1,0,1
0.329821800,0,0,0,1
0.330194300,0,0,0,0
0.330213200,0,0,1,0
0.330586700,1,1,1,0
0.332127100,1,1,0,0
0.333002500,1,0,0,0
0.333270300,0,0,0,0
0.333340600,0,0,0,1
0.334699300,0,0,1,1
0.335361800,0,1,1,1
0.335514100,0,1,1,0
0.335638800,1,1,1,0
0.335935700,1,1,0,0
0.336722800,1,1,0,1
0.338203900,0,1,0,1
0.338509000,0,1,1,1
0.338579500,0,0,1,1
0.338820200,0,0,1,0
0.338869900,1,0,1,0
0.339032500,1,1,1,0
0.340109300,1,1,0,0
0.340238000,0,1,0,0
0.340385300,0,0,0,0
0.340767900,0,1,0,0
0.340931400,0,0,0,0
0.341469600,0,0,1,0
0.341611500,0,1,1,0
0.341720800,0,1,1,1
0.342361100,1,1,1,1
0.342387200,0,1,1,1
0.342895600,0,1,0,1
0.343037200,0,0,0,1
0.343467700,0,0,0,0
0.343645700,0,0,0,1
0.343788400,0,1,0,1
0.344138300,0,1,1,1
0.344322500,1,1,1,1
0.345129300,1,1,0,1
0.345184800,0,1,0,1
0.346024700,0,0,0,1
0.346545200,0,0,0,0
0.346656400,1,0,0,0
0.347466300,1,0,0,1
0.347890500,1,0,1,1
0.348389100,1,0,0,1
0.348988900,0,0,0,1
0.348990300,0,1,0,1
0.349003000,0,1,1,1
0.350321600,0,1,1,0
0.350567700,1,1,1,0
0.350756300,1,1,0,0
0.351611800,1,0,0,0
0.352228900,1,0,1,0
0.353197500,1,0,1,1
0.353375000,0,0,1,1
0.353436100,1,0,1,1
0.354394400,1,0,0,1
0.354661900,1,1,0,1
0.354722400,1,1,1,1
0.354945200,1,0,1,1
0.355130600,1,0,1,0
0.355513800,1,1,1,0
0.356265300,0,1,1,0
0.356394600,0,1,0,0
0.357191700,0,1,0,1
0.357737600,0,0,0,1
0.357992700,1,0,0,1
0.358860100,1,0,1,1
0.359071200,0,0,1,1
0.359318800,0,1,1,1
0.360105600,0,0,1,1
0.360385500,0,0,1,0
0.360487500,0,0,0,0
0.360843500,0,0,0,1
0.361021500,0,0,0,0
0.361885400,0,0,1,0
0.362081200,1,0,1,0
0.362269400,1,0,0,0
0.362733000,1,0,0,1
0.363156200,1,1,0,1
0.363550900,1,0,0,1
0.363655200,1,0,1,1
0.363662800,1,1,1,1
0.364307200,0,1,1,1
0.365219300,0,1,0,1
0.365937100,1,1,0,1
0.365981400,1,1,0,0
0.366392100,1,0,0,0
0.366694500,1,0,1,0
0.366712600,1,0,1,1
0.366896500,1,1,1,1
0.368029400,1,1,0,1
0.368404100,1,1,1,1
0.368666000,0,1,1,1
0.368668400,0,0,1,1
0.369053100,0,1,1,1
0.369846600,0,1,1,0
0.370168200,1,1,1,0
0.370350500,1,0,1,0
0.370476100,1,0,1,1
0.370870300,0,0,1,1
0.371192100,0,0,0,1
0.371637200,0,0,0,0
0.371980600,0,1,0,0
0.372491100,0,0,0,0
0.373558700,0,0,1,0
0.373813000,1,0,1,0
0.374781300,1,1,1,0
0.374877900,1,1,1,1
0.375539200,1,1,0,1
0.376391200,0,1,0,1
0.376526500,0,0,0,1
0.377688800,0,0,1,1
0.377863400,1,0,1,1
0.377981100,1,0,1,0
0.378013000,1,0,1,1
0.378093400,1,1,1,1
0.378136300,1,1,1,0
0.378202700,1,1,0,0
0.378798000,1,1,0,1
0.378938700,1,0,0,1
0.379009500,0,0,0,1
0.379853800,0,0,1,1
0.380491500,0,0,0,1
0.380880200,0,1,0,1
0.381494200,0,0,0,1
0.381584500,0,0,0,0
0.381977200,1,0,0,0
0.382088900,0,0,0,0
0.382460500,0,0,1,0
0.382486100,0,0,1,1
0.383182900,1,0,1,1
0.383574800,1,0,1,0
0.383585700,1,1,1,0
0.383589400,1,1,1,1
0.383929900,1,1,0,1
0.384004300,1,1,1,1
0.384011800,1,0,1,1
0.384460500,1,0,0,1
0.384736100,1,0,0,0
0.384848900,1,0,0,1
0.385447900,0,0,0,1
0.385611900,0,1,0,1
0.385938300,0,1,0,0
0.386217400,0,1,1,0
0.386341900,0,1,1,1
0.386774800,1,1,1,1
0.388076900,1,0,1,1
0.388334500,1,0,1,0
0.388921800,1,1,1,0
0.389040100,1,1,1,1
0.389333700,1,1,0,1
0.389487100,0,1,0,1
0.389867700,0,1,1,1
0.390387800,1,1,1,1
0.390737200,1,0,1,1
0.390812300,1,0,1,0
0.390936300,1,0,0,0
0.392178100,0,0,0,0
0.392282800,1,0,0,0
0.392899300,1,1,0,0
0.393462600,1,1,0,1
0.393500200,1,0,0,1
0.393740200,1,0,0,0
0.394074100,1,0,1,0
0.394081500,1,0,1,1
0.394760100,1,1,1,1
0.394977700,0,1,1,1
0.395182100,0,1,1,0
0.395277100,1,1,1,0
0.396358200,1,1,0,0
0.396468300,0,1,0,0
0.396515400,0,1,1,0
0.396599100,1,1,1,0
0.396880000,1,0,1,0
0.398141000,1,1,1,0
0.398278900,1,1,1,1
0.399190800,1,1,1,0
0.399248200,1,1,0,0
0.399629600,0,1,0,0
0.400931200,0,0,0,0
0.401021200,0,0,1,0
0.401290300,0,1,1,0
0.401745100,1,1,1,0
0.402197500,1,1,1,1
0.402951600,1,1,1,0
0.403412800,1,1,1,1
0.403567300,1,1,0,1
0.403656100,0,1,0,1
0.403664100,0,1,0,0
