Time [s],Channel 0,Channel 1,Channel 2,Channel 3,Channel 4,Channel 5,Channel 6,Channel 7,Channel 8,Channel 9,Channel 10,Channel 11
-0.000925000,0,0,0,0,0,0,1,1,0,0,1,1
-0.000500000,0,0,0,0,0,0,1,1,0,0,1,0
-0.000083000,0,0,0,0,0,0,0,0,0,0,0,0
-0.000071000,1,1,0,1,1,1,0,1,0,0,1,0
0.000000000,1,1,0,1,1,1,0,1,0,0,1,1
0.000500000,1,1,0,1,1,1,0,1,0,0,1,0
0.000917000,0,0,0,0,0,0,0,0,0,0,0,0
0.000929000,1,0,1,1,1,1,0,1,0,0,1,0
0.001000000,1,0,1,1,1,1,0,1,0,0,1,1
0.001500000,1,0,1,1,1,1,0,1,0,0,1,0
0.001917000,0,0,0,0,0,0,0,0,0,0,0,0
0.001929000,1,0,0,1,1,1,0,1,0,0,1,0
0.002000000,1,0,0,1,1,1,0,1,0,0,1,1
0.002500000,1,0,0,1,1,1,0,1,0,0,1,0
0.002917000,0,0,0,0,0,0,0,0,0,0,0,0
0.002929000,1,0,1,1,1,1,0,1,0,0,1,0
0.003000000,1,0,1,1,1,1,0,1,0,0,1,1
0.003500000,1,0,1,1,1,1,0,1,0,0,1,0
0.003917000,0,0,0,0,0,0,0,0,0,0,0,0
0.003929000,0,1,0,0,0,0,1,1,0,0,1,0
0.004000000,0,1,0,0,0,0,1,1,0,0,1,1
0.004500000,0,1,0,0,0,0,1,1,0,0,1,0
0.004917000,0,0,0,0,0,0,0,0,0,0,0,0
0.004929000,0,0,0,1,1,1,0,1,0,0,1,0
0.005000000,0,0,0,1,1,1,0,1,0,0,1,1
0.005500000,0,0,0,1,1,1,0,1,0,0,1,0
0.005917000,0,0,0,0,0,0,0,0,0,0,0,0
0.005929000,0,1,0,0,0,0,1,1,0,0,1,0
0.006000000,0,1,0,0,0,0,1,1,0,0,1,1
0.006500000,0,1,0,0,0,0,1,1,0,0,1,0
0.006917000,0,0,0,0,0,0,0,0,0,0,0,0
0.006929000,0,0,1,0,1,1,0,1,0,0,1,0
0.007000000,0,0,1,0,1,1,0,1,0,0,1,1
0.007500000,0,0,1,0,1,1,0,1,0,0,1,0
0.007917000,0,0,0,0,0,0,0,0,0,0,0,0
0.007929000,1,1,1,1,1,1,0,1,0,0,1,0
0.008000000,1,1,1,1,1,1,0,1,0,0,1,1
0.008500000,1,1,1,1,1,1,0,1,0,0,1,0
0.008917000,0,0,0,0,0,0,0,0,0,0,0,0
0.008929000,1,0,1,0,1,1,0,1,0,0,1,0
0.009000000,1,0,1,0,1,1,0,1,0,0,1,1
0.009500000,1,0,1,0,1,1,0,1,0,0,1,0
0.009917000,0,0,0,0,0,0,0,0,0,0,0,0
0.009929000,1,1,0,0,0,0,1,1,0,0,1,0
0.010000000,1,1,0,0,0,0,1,1,0,0,1,1
0.010500000,1,1,0,0,0,0,1,1,0,0,1,0
0.010917000,0,0,0,0,0,0,0,0,0,0,0,0
0.010929000,1,0,0,0,1,1,0,1,0,0,1,0
0.011000000,1,0,0,0,1,1,0,1,0,0,1,1
0.011500000,1,0,0,0,1,1,0,1,0,0,1,0
0.011917000,0,0,0,0,0,0,0,0,0,0,0,0
0.011929000,1,1,1,1,1,1,0,1,0,0,1,0
0.012000000,1,1,1,1,1,1,0,1,0,0,1,1
0.012500000,1,1,1,1,1,1,0,1,0,0,1,0
0.012917000,0,0,0,0,0,0,0,0,0,0,0,0
0.012929000,0,1,0,1,1,1,0,1,0,0,1,0
0.013000000,0,1,0,1,1,1,0,1,0,0,1,1
0.013500000,0,1,0,1,1,1,0,1,0,0,1,0
0.013917000,0,0,0,0,0,0,0,0,0,0,0,0
0.013929000,1,0,0,1,1,1,0,1,0,0,1,0
0.014000000,1,0,0,1,1,1,0,1,0,0,1,1
0.014500000,1,0,0,1,1,1,0,1,0,0,1,0
0.014917000,0,0,0,0,0,0,0,0,0,0,0,0
0.014929000,1,0,1,1,1,1,0,1,0,0,1,0
0.015000000,1,0,1,1,1,1,0,1,0,0,1,1
0.015500000,1,0,1,1,1,1,0,1,0,0,1,0
0.015917000,0,0,0,0,0,0,0,0,0,0,0,0
0.015929000,0,1,1,1,1,1,0,1,0,0,1,0
0.016000000,0,1,1,1,1,1,0,1,0,0,1,1
0.016500000,0,1,1,1,1,1,0,1,0,0,1,0
0.016917000,0,0,0,0,0,0,0,0,0,0,0,0
0.016929000,1,1,1,0,1,1,0,1,0,0,1,0
0.017000000,1,1,1,0,1,1,0,1,0,0,1,1
0.017500000,1,1,1,0,1,1,0,1,0,0,1,0
0.017917000,0,0,0,0,0,0,0,0,0,0,0,0
0.017929000,0,0,1,1,1,1,0,1,0,0,1,0
0.018000000,0,0,1,1,1,1,0,1,0,0,1,1
0.018500000,0,0,1,1,1,1,0,1,0,0,1,0
0.018917000,0,0,0,0,0,0,0,0,0,0,0,0
0.018929000,1,1,0,1,1,1,0,1,0,0,1,0
0.019000000,1,1,0,1,1,1,0,1,0,0,1,1
0.019500000,1,1,0,1,1,1,0,1,0,0,1,0
0.019917000,0,0,0,0,0,0,0,0,0,0,0,0
0.019929000,1,1,1,1,1,1,0,1,0,0,1,0
0.020000000,1,1,1,1,1,1,0,1,0,0,1,1
0.020500000,1,1,1,1,1,1,0,1,0,0,1,0
0.020917000,0,0,0,0,0,0,0,0,0,0,0,0
0.020929000,1,0,1,1,1,1,0,1,0,0,1,0
0.021000000,1,0,1,1,1,1,0,1,0,0,1,1
0.021500000,1,0,1,1,1,1,0,1,0,0,1,0
0.021917000,0,0,0,0,0,0,0,0,0,0,0,0
0.021929000,0,0,0,1,1,1,0,1,0,0,1,0
0.022000000,0,0,0,1,1,1,0,1,0,0,1,1
0.022500000,0,0,0,1,1,1,0,1,0,0,1,0
0.022917000,0,0,0,0,0,0,0,0,0,0,0,0
0.022929000,1,0,1,1,1,1,0,1,0,0,1,0
0.023000000,1,0,1,1,1,1,0,1,0,0,1,1
0.023500000,1,0,1,1,1,1,0,1,0,0,1,0
0.023917000,0,0,0,0,0,0,0,0,0,0,0,0
0.023929000,0,0,0,1,1,1,0,1,0,0,1,0
0.024000000,0,0,0,1,1,1,0,1,0,0,1,1
0.024500000,0,0,0,1,1,1,0,1,0,0,1,0
0.024917000,0,0,0,0,0,0,0,0,0,0,0,0
0.024929000,0,0,0,0,0,0,1,1,0,0,1,0
0.025000000,0,0,0,0,0,0,1,1,0,0,1,1
0.025500000,0,0,0,0,0,0,1,1,0,0,1,0
0.025917000,0,0,0,0,0,0,0,0,0,0,0,0
0.025929000,1,0,1,0,1,1,0,1,0,0,1,0
0.026000000,1,0,1,0,1,1,0,1,0,0,1,1
0.026500000,1,0,1,0,1,1,0,1,0,0,1,0
0.026917000,0,0,0,0,0,0,0,0,0,0,0,0
0.026929000,0,1,0,1,1,1,0,1,0,0,1,0
0.027000000,0,1,0,1,1,1,0,1,0,0,1,1
0.027500000,0,1,0,1,1,1,0,1,0,0,1,0
0.027917000,0,0,0,0,0,0,0,0,0,0,0,0
0.027929000,0,0,0,1,1,1,0,1,0,0,1,0
0.028000000,0,0,0,1,1,1,0,1,0,0,1,1
0.028500000,0,0,0,1,1,1,0,1,0,0,1,0
0.028917000,0,0,0,0,0,0,0,0,0,0,0,0
0.028929000,0,0,0,1,1,1,0,1,0,0,1,0
0.029000000,0,0,0,1,1,1,0,1,0,0,1,1
0.029500000,0,0,0,1,1,1,0,1,0,0,1,0
0.029917000,0,0,0,0,0,0,0,0,0,0,0,0
0.029929000,0,1,0,1,1,1,0,1,0,0,1,0
0.030000000,0,1,0,1,1,1,0,1,0,0,1,1
0.030500000,0,1,0,1,1,1,0,1,0,0,1,0
0.030917000,0,0,0,0,0,0,0,0,0,0,0,0
0.030929000,0,1,1,1,1,1,0,1,0,0,1,0
0.031000000,0,1,1,1,1,1,0,1,0,0,1,1
0.031500000,0,1,1,1,1,1,0,1,0,0,1,0
0.031917000,0,0,0,0,0,0,0,0,0,0,0,0
0.031929000,1,1,1,1,1,1,0,1,0,0,1,0
0.032000000,1,1,1,1,1,1,0,1,0,0,1,1
0.032500000,1,1,1,1,1,1,0,1,0,0,1,0
0.032917000,0,0,0,0,0,0,0,0,0,0,0,0
0.032929000,0,1,0,1,1,1,0,1,0,0,1,0
0.033000000,0,1,0,1,1,1,0,1,0,0,1,1
0.033500000,0,1,0,1,1,1,0,1,0,0,1,0
0.033917000,0,0,0,0,0,0,0,0,0,0,0,0
0.033929000,1,0,1,1,1,1,0,1,0,0,1,0
0.034000000,1,0,1,1,1,1,0,1,0,0,1,1
0.034500000,1,0,1,1,1,1,0,1,0,0,1,0
0.034917000,0,0,0,0,0,0,0,0,0,0,0,0
0.034929000,1,0,0,1,1,1,0,1,0,0,1,0
0.035000000,1,0,0,1,1,1,0,1,0,0,1,1
0.035500000,1,0,0,1,1,1,0,1,0,0,1,0
0.035917000,0,0,0,0,0,0,0,0,0,0,0,0
0.035929000,0,1,0,1,1,1,0,1,0,0,1,0
0.036000000,0,1,0,1,1,1,0,1,0,0,1,1
0.036500000,0,1,0,1,1,1,0,1,0,0,1,0
0.036917000,0,0,0,0,0,0,0,0,0,0,0,0
0.036929000,0,0,1,1,1,1,0,1,0,0,1,0
0.037000000,0,0,1,1,1,1,0,1,0,0,1,1
0.037500000,0,0,1,1,1,1,0,1,0,0,1,0
0.037916000,0,0,1,1,1,1,0,1,0,0,0,0
0.037917000,0,0,0,0,0,0,0,0,0,0,0,0
0.037929000,1,0,1,1,1,1,0,1,0,0,1,0
0.038000000,1,0,1,1,1,1,0,1,0,0,1,1
0.038500000,1,0,1,1,1,1,0,1,0,0,1,0
0.038916000,1,0,1,1,1,1,0,1,0,0,0,0
0.038917000,0,0,0,0,0,0,0,0,0,0,0,0
0.038929000,1,0,1,1,1,1,0,1,0,0,1,0
0.039000000,1,0,1,1,1,1,0,1,0,0,1,1
0.039500000,1,0,1,1,1,1,0,1,0,0,1,0
0.039916000,1,0,1,1,1,1,0,1,0,0,0,0
0.039917000,0,0,0,0,0,0,0,0,0,0,0,0
0.039929000,0,1,1,1,1,1,0,1,0,0,1,0
0.040000000,0,1,1,1,1,1,0,1,0,0,1,1
0.040500000,0,1,1,1,1,1,0,1,0,0,1,0
0.040916000,0,1,1,1,1,1,0,1,0,0,0,0
0.040917000,0,0,0,0,0,0,0,0,0,0,0,0
0.040929000,1,1,1,1,1,1,0,1,0,0,1,0
0.041000000,1,1,1,1,1,1,0,1,0,0,1,1
0.041500000,1,1,1,1,1,1,0,1,0,0,1,0
0.041916000,1,1,1,1,0,0,1,1,1,1,1,0
0.041917000,0,0,0,0,0,0,0,0,0,0,0,0
0.041929000,0,0,1,1,1,1,0,1,0,0,1,0
0.042000000,0,0,1,1,1,1,0,1,0,0,1,1
0.042500000,0,0,1,1,1,1,0,1,0,0,1,0
0.042916000,0,0,0,1,0,0,0,1,0,0,0,0
0.042917000,0,0,0,0,0,0,0,0,0,0,0,0
0.042929000,0,0,1,1,1,1,0,1,0,0,1,0
0.043000000,0,0,1,1,1,1,0,1,0,0,1,1
0.043500000,0,0,1,1,1,1,0,1,0,0,1,0
0.043916000,0,0,0,0,0,0,0,0,0,0,0,0
0.043929000,0,0,1,1,1,1,0,1,0,0,1,0
0.044000000,0,0,1,1,1,1,0,1,0,0,1,1
0.044500000,0,0,1,1,1,1,0,1,0,0,1,0
0.044916000,0,0,0,0,0,0,0,0,0,0,0,0
0.044929000,0,1,1,1,1,1,0,1,0,0,1,0
0.045000000,0,1,1,1,1,1,0,1,0,0,1,1
0.045500000,0,1,1,1,1,1,0,1,0,0,1,0
0.045916000,0,0,0,0,0,0,0,0,0,0,0,0
0.045929000,0,1,0,1,1,1,0,1,0,0,1,0
0.046000000,0,1,0,1,1,1,0,1,0,0,1,1
0.046500000,0,1,0,1,1,1,0,1,0,0,1,0
0.046916000,0,0,0,0,0,0,0,0,0,0,0,0
0.046929000,0,1,1,1,1,1,0,1,0,0,1,0
0.047000000,0,1,1,1,1,1,0,1,0,0,1,1
0.047500000,0,1,1,1,1,1,0,1,0,0,1,0
0.047916000,0,0,0,0,0,0,0,0,0,0,0,0
0.047929000,1,1,0,1,1,1,0,1,0,0,1,0
0.048000000,1,1,0,1,1,1,0,1,0,0,1,1
0.048500000,1,1,0,1,1,1,0,1,0,0,1,0
0.048916000,0,0,0,0,0,0,0,0,0,0,0,0
0.048929000,0,0,0,0,0,0,1,1,0,0,1,0
0.049000000,0,0,0,0,0,0,1,1,0,0,1,1
0.049500000,0,0,0,0,0,0,1,1,0,0,1,0
0.049916000,0,0,0,0,0,0,0,0,0,0,0,0
0.049929000,1,1,0,1,1,1,0,1,0,0,1,0
0.050000000,1,1,0,1,1,1,0,1,0,0,1,1
0.050500000,1,1,0,1,1,1,0,1,0,0,1,0
0.050916000,0,0,0,0,0,0,0,0,0,0,0,0
0.050929000,1,1,1,1,1,1,0,1,0,0,1,0
0.051000000,1,1,1,1,1,1,0,1,0,0,1,1
0.051500000,1,1,1,1,1,1,0,1,0,0,1,0
0.051916000,0,0,0,0,0,0,0,0,0,0,0,0
0.051929000,0,0,0,1,1,1,0,1,0,0,1,0
0.052000000,0,0,0,1,1,1,0,1,0,0,1,1
0.052500000,0,0,0,1,1,1,0,1,0,0,1,0
0.052916000,0,0,0,0,0,0,0,0,0,0,0,0
0.052929000,0,1,0,1,1,1,0,1,0,0,1,0
0.053000000,0,1,0,1,1,1,0,1,0,0,1,1
0.053500000,0,1,0,1,1,1,0,1,0,0,1,0
0.053916000,0,0,0,0,0,0,0,0,0,0,0,0
0.053929000,1,1,1,1,1,1,0,1,0,0,1,0
0.054000000,1,1,1,1,1,1,0,1,0,0,1,1
0.054500000,1,1,1,1,1,1,0,1,0,0,1,0
0.054916000,0,0,0,0,0,0,0,0,0,0,0,0
0.054929000,0,0,0,0,0,0,1,1,0,0,1,0
0.055000000,0,0,0,0,0,0,1,1,0,0,1,1
0.055500000,0,0,0,0,0,0,1,1,0,0,1,0
0.055916000,0,0,0,0,0,0,0,0,0,0,0,0
0.055929000,1,1,1,1,1,1,0,1,0,0,1,0
0.056000000,1,1,1,1,1,1,0,1,0,0,1,1
0.056500000,1,1,1,1,1,1,0,1,0,0,1,0
0.056916000,0,0,0,0,0,0,0,0,0,0,0,0
0.056929000,1,1,1,1,1,1,0,1,0,0,1,0
0.057000000,1,1,1,1,1,1,0,1,0,0,1,1
0.057500000,1,1,1,1,1,1,0,1,0,0,1,0
0.057916000,0,0,0,0,0,0,0,0,0,0,0,0
0.057929000,1,0,1,1,1,1,0,1,0,0,1,0
0.058000000,1,0,1,1,1,1,0,1,0,0,1,1
0.058500000,1,0,1,1,1,1,0,1,0,0,1,0
0.058916000,0,0,0,0,0,0,0,0,0,0,0,0
0.058929000,0,0,0,1,1,1,0,1,0,0,1,0
0.059000000,0,0,0,1,1,1,0,1,0,0,1,1
0.059500000,0,0,0,1,1,1,0,1,0,0,1,0
0.059916000,0,0,0,0,0,0,0,0,0,0,0,0
0.059929000,1,1,0,1,1,1,0,1,0,0,1,0
0.060000000,1,1,0,1,1,1,0,1,0,0,1,1
0.060500000,1,1,0,1,1,1,0,1,0,0,1,0
0.060916000,0,0,0,0,0,0,0,0,0,0,0,0
0.060929000,1,0,1,1,1,1,0,1,0,0,1,0
0.061000000,1,0,1,1,1,1,0,1,0,0,1,1
0.061500000,1,0,1,1,1,1,0,1,0,0,1,0
0.061916000,0,0,0,0,0,0,0,0,0,0,0,0
0.061929000,0,1,1,1,1,1,0,1,0,0,1,0
0.062000000,0,1,1,1,1,1,0,1,0,0,1,1
0.062500000,0,1,1,1,1,1,0,1,0,0,1,0
0.062916000,0,0,0,0,0,0,0,0,0,0,0,0
0.062929000,0,1,0,1,1,1,0,1,0,0,1,0
0.063000000,0,1,0,1,1,1,0,1,0,0,1,1
0.063500000,0,1,0,1,1,1,0,1,0,0,1,0
0.063916000,0,0,0,0,0,0,0,0,0,0,0,0
0.063929000,0,1,0,1,1,1,0,1,0,0,1,0
0.064000000,0,1,0,1,1,1,0,1,0,0,1,1
0.064500000,0,1,0,1,1,1,0,1,0,0,1,0
0.064916000,0,0,0,0,0,0,0,0,0,0,0,0
0.064929000,1,1,1,1,1,1,0,1,0,0,1,0
0.065000000,1,1,1,1,1,1,0,1,0,0,1,1
0.065500000,1,1,1,1,1,1,0,1,0,0,1,0
0.065916000,0,0,0,0,0,0,0,0,0,0,0,0
0.065929000,0,1,1,1,1,1,0,1,0,0,1,0
0.066000000,0,1,1,1,1,1,0,1,0,0,1,1
0.066500000,0,1,1,1,1,1,0,1,0,0,1,0
0.066916000,0,0,0,0,0,0,0,0,0,0,0,0
0.066928000,0,0,0,0,0,0,1,1,0,0,1,0
0.067000000,0,0,0,0,0,0,1,1,0,0,1,1
0.067500000,0,0,0,0,0,0,1,1,0,0,1,0
0.067916000,0,0,0,0,0,0,0,0,0,0,0,0
0.067929000,1,1,1,0,1,1,0,1,0,0,1,0
0.068000000,1,1,1,0,1,1,0,1,0,0,1,1
0.068500000,1,1,1,0,1,1,0,1,0,0,1,0
0.068916000,0,0,0,0,0,0,0,0,0,0,0,0
0.068929000,0,1,1,1,1,1,0,1,0,0,1,0
0.069000000,0,1,1,1,1,1,0,1,0,0,1,1
0.069500000,0,1,1,1,1,1,0,1,0,0,1,0
0.069916000,0,0,0,0,0,0,0,0,0,0,0,0
0.069929000,1,1,1,0,1,1,0,1,0,0,1,0
0.070000000,1,1,1,0,1,1,0,1,0,0,1,1
0.070500000,1,1,1,0,1,1,0,1,0,0,1,0
0.070916000,0,0,0,0,0,0,0,0,0,0,0,0
0.070929000,1,1,1,0,1,1,0,1,0,0,1,0
0.071000000,1,1,1,0,1,1,0,1,0,0,1,1
0.071500000,1,1,1,0,1,1,0,1,0,0,1,0
0.071916000,0,0,0,0,0,0,0,0,0,0,0,0
0.071929000,0,1,1,1,1,1,0,1,0,0,1,0
0.072000000,0,1,1,1,1,1,0,1,0,0,1,1
0.072500000,0,1,1,1,1,1,0,1,0,0,1,0
0.072916000,0,0,0,0,0,0,0,0,0,0,0,0
0.072929000,0,0,0,1,1,1,0,1,0,0,1,0
0.073000000,0,0,0,1,1,1,0,1,0,0,1,1
0.073500000,0,0,0,1,1,1,0,1,0,0,1,0
0.073916000,0,0,0,0,0,0,0,0,0,0,0,0
0.073929000,1,1,0,1,1,1,0,1,0,0,1,0
0.074000000,1,1,0,1,1,1,0,1,0,0,1,1
0.074500000,1,1,0,1,1,1,0,1,0,0,1,0
0.074916000,0,0,0,0,0,0,0,0,0,0,0,0
0.074929000,0,0,0,1,1,1,0,1,0,0,1,0
0.075000000,0,0,0,1,1,1,0,1,0,0,1,1
0.075500000,0,0,0,1,1,1,0,1,0,0,1,0
0.075916000,0,0,0,0,0,0,0,0,0,0,0,0
0.075929000,0,1,1,1,1,1,0,1,0,0,1,0
0.076000000,0,1,1,1,1,1,0,1,0,0,1,1
0.076500000,0,1,1,1,1,1,0,1,0,0,1,0
0.076916000,0,0,0,0,0,0,0,0,0,0,0,0
0.076929000,1,1,0,1,1,1,0,1,0,0,1,0
0.077000000,1,1,0,1,1,1,0,1,0,0,1,1
0.077500000,1,1,0,1,1,1,0,1,0,0,1,0
0.077916000,0,0,0,0,0,0,0,0,0,0,0,0
0.077929000,1,1,1,1,1,1,0,1,0,0,1,0
0.078000000,1,1,1,1,1,1,0,1,0,0,1,1
0.078500000,1,1,1,1,1,1,0,1,0,0,1,0
0.078916000,0,0,0,0,0,0,0,0,0,0,0,0
0.078929000,1,1,0,1,1,1,0,1,0,0,1,0
0.079000000,1,1,0,1,1,1,0,1,0,0,1,1
0.079500000,1,1,0,1,1,1,0,1,0,0,1,0
0.079916000,0,0,0,0,0,0,0,0,0,0,0,0
0.079929000,0,1,1,0,1,1,0,1,0,0,1,0
0.080000000,0,1,1,0,1,1,0,1,0,0,1,1
0.080500000,0,1,1,0,1,1,0,1,0,0,1,0
0.080916000,0,0,0,0,0,0,0,0,0,0,0,0
0.080929000,1,0,0,1,1,1,0,1,0,0,1,0
0.081000000,1,0,0,1,1,1,0,1,0,0,1,1
0.081500000,1,0,0,1,1,1,0,1,0,0,1,0
0.081916000,0,0,0,0,0,0,0,0,0,0,0,0
0.081929000,0,0,0,1,1,1,0,1,0,0,1,0
0.082000000,0,0,0,1,1,1,0,1,0,0,1,1
0.082499000,0,0,0,1,1,1,0,1,0,0,1,0
0.082916000,0,0,0,0,0,0,0,0,0,0,0,0
0.082929000,0,0,1,1,1,1,0,1,0,0,1,0
0.082999000,0,0,1,1,1,1,0,1,0,0,1,1
0.083499000,0,0,1,1,1,1,0,1,0,0,1,0
0.083916000,0,0,0,0,0,0,0,0,0,0,0,0
0.083929000,0,0,1,1,1,1,0,1,0,0,1,0
0.083999000,0,0,1,1,1,1,0,1,0,0,1,1
0.084499000,0,0,1,1,1,1,0,1,0,0,1,0
0.084916000,0,0,0,0,0,0,0,0,0,0,0,0
0.084929000,0,0,1,1,1,1,0,1,0,0,1,0
0.084999000,0,0,1,1,1,1,0,1,0,0,1,1
0.085499000,0,0,1,1,1,1,0,1,0,0,1,0
0.085916000,0,0,0,0,0,0,0,0,0,0,0,0
0.085929000,0,1,1,1,1,1,0,1,0,0,1,0
0.085999000,0,1,1,1,1,1,0,1,0,0,1,1
0.086499000,0,1,1,1,1,1,0,1,0,0,1,0
0.086916000,0,0,0,0,0,0,0,0,0,0,0,0
0.086929000,0,1,1,1,1,1,0,1,0,0,1,0
0.086999000,0,1,1,1,1,1,0,1,0,0,1,1
0.087499000,0,1,1,1,1,1,0,1,0,0,1,0
0.087916000,0,0,0,0,0,0,0,0,0,0,0,0
0.087928000,0,0,0,1,1,1,0,1,0,0,0,0
0.087929000,0,0,0,1,1,1,0,1,0,0,1,0
0.087999000,0,0,0,1,1,1,0,1,0,0,1,1
0.088499000,0,0,0,1,1,1,0,1,0,0,1,0
0.088916000,0,0,0,0,0,0,0,0,0,0,0,0
0.088928000,0,0,0,0,0,0,1,1,0,0,1,0
0.088999000,0,0,0,0,0,0,1,1,0,0,1,1
0.089499000,0,0,0,0,0,0,1,1,0,0,1,0
0.089916000,0,0,0,0,0,0,0,0,0,0,0,0
0.089928000,0,0,0,1,1,1,0,1,0,0,1,0
0.089999000,0,0,0,1,1,1,0,1,0,0,1,1
0.090499000,0,0,0,1,1,1,0,1,0,0,1,0
0.090916000,0,0,0,0,0,0,0,0,0,0,0,0
0.090929000,1,1,1,1,1,1,0,1,0,0,1,0
0.090999000,1,1,1,1,1,1,0,1,0,0,1,1
0.091499000,1,1,1,1,1,1,0,1,0,0,1,0
0.091916000,0,0,0,0,0,0,0,0,0,0,0,0
0.091928000,0,1,1,1,1,1,0,1,0,0,1,0
0.091929000,1,1,1,1,1,1,0,1,0,0,1,0
0.091999000,1,1,1,1,1,1,0,1,0,0,1,1
0.092499000,1,1,1,1,1,1,0,1,0,0,1,0
0.092916000,0,0,0,0,0,0,0,0,0,0,0,0
0.092929000,1,0,1,1,1,1,0,1,0,0,1,0
0.092999000,1,0,1,1,1,1,0,1,0,0,1,1
0.093499000,1,0,1,1,1,1,0,1,0,0,1,0
0.093916000,0,0,0,0,0,0,0,0,0,0,0,0
0.093928000,1,1,0,1,1,1,0,1,0,0,1,0
0.093999000,1,1,0,1,1,1,0,1,0,0,1,1
0.094499000,1,1,0,1,1,1,0,1,0,0,1,0
0.094916000,0,0,0,0,0,0,0,0,0,0,0,0
0.094928000,1,1,1,0,1,1,0,1,0,0,1,0
0.094999000,1,1,1,0,1,1,0,1,0,0,1,1
0.095499000,1,1,1,0,1,1,0,1,0,0,1,0
0.095916000,0,0,0,0,0,0,0,0,0,0,0,0
0.095928000,0,0,0,1,1,1,0,1,0,0,1,0
0.095999000,0,0,0,1,1,1,0,1,0,0,1,1
0.096499000,0,0,0,1,1,1,0,1,0,0,1,0
0.096916000,0,0,0,0,0,0,0,0,0,0,0,0
0.096928000,1,1,0,1,1,1,0,1,0,0,1,0
0.096999000,1,1,0,1,1,1,0,1,0,0,1,1
0.097499000,1,1,0,1,1,1,0,1,0,0,1,0
0.097916000,0,0,0,0,0,0,0,0,0,0,0,0
0.097928000,1,1,1,1,1,1,0,1,0,0,1,0
0.097999000,1,1,1,1,1,1,0,1,0,0,1,1
0.098499000,1,1,1,1,1,1,0,1,0,0,1,0
0.098916000,0,0,0,0,0,0,0,0,0,0,0,0
0.098928000,1,1,1,1,1,1,0,1,0,0,1,0
0.098999000,1,1,1,1,1,1,0,1,0,0,1,1
0.099499000,1,1,1,1,1,1,0,1,0,0,1,0
0.099916000,0,0,0,0,0,0,0,0,0,0,0,0
0.099929000,0,0,1,1,1,1,0,1,0,0,1,0
0.099999000,0,0,1,1,1,1,0,1,0,0,1,1
0.100499000,0,0,1,1,1,1,0,1,0,0,1,0
0.100916000,0,0,0,0,0,0,0,0,0,0,0,0
0.100928000,0,0,0,0,0,0,1,1,0,0,1,0
0.100999000,0,0,0,0,0,0,1,1,0,0,1,1
0.101499000,0,0,0,0,0,0,1,1,0,0,1,0
0.101916000,0,0,0,0,0,0,0,0,0,0,0,0
0.101928000,1,1,1,1,1,1,0,1,0,0,1,0
0.101999000,1,1,1,1,1,1,0,1,0,0,1,1
0.102499000,1,1,1,1,1,1,0,1,0,0,1,0
0.102916000,0,0,0,0,0,0,0,0,0,0,0,0
0.102928000,1,0,0,1,1,1,0,1,0,0,1,0
0.102999000,1,0,0,1,1,1,0,1,0,0,1,1
0.103499000,1,0,0,1,1,1,0,1,0,0,1,0
0.103916000,0,0,0,0,0,0,0,0,0,0,0,0
0.103928000,1,1,0,1,1,1,0,1,0,0,1,0
0.103999000,1,1,0,1,1,1,0,1,0,0,1,1
0.104499000,1,1,0,1,1,1,0,1,0,0,1,0
0.104916000,0,0,0,0,0,0,0,0,0,0,0,0
0.104928000,0,1,0,1,1,1,0,1,0,0,1,0
0.104999000,0,1,0,1,1,1,0,1,0,0,1,1
0.105499000,0,1,0,1,1,1,0,1,0,0,1,0
0.105916000,0,0,0,0,0,0,0,0,0,0,0,0
0.105928000,1,1,1,1,1,1,0,1,0,0,1,0
0.105999000,1,1,1,1,1,1,0,1,0,0,1,1
0.106499000,1,1,1,1,1,1,0,1,0,0,1,0
0.106916000,0,0,0,0,0,0,0,0,0,0,0,0
0.106928000,1,1,0,1,1,1,0,1,0,0,1,0
0.106999000,1,1,0,1,1,1,0,1,0,0,1,1
0.107499000,1,1,0,1,1,1,0,1,0,0,1,0
0.107916000,0,0,0,0,0,0,0,0,0,0,0,0
0.107928000,1,1,0,1,1,1,0,1,0,0,1,0
0.107999000,1,1,0,1,1,1,0,1,0,0,1,1
0.108499000,1,1,0,1,1,1,0,1,0,0,1,0
0.108916000,0,0,0,0,0,0,0,0,0,0,0,0
0.108928000,1,0,1,1,1,1,0,1,0,0,1,0
0.108999000,1,0,1,1,1,1,0,1,0,0,1,1
0.109499000,1,0,1,1,1,1,0,1,0,0,1,0
0.109916000,0,0,0,0,0,0,0,0,0,0,0,0
0.109928000,0,0,1,1,1,1,0,1,0,0,1,0
0.109999000,0,0,1,1,1,1,0,1,0,0,1,1
0.110499000,0,0,1,1,1,1,0,1,0,0,1,0
0.110916000,0,0,0,0,0,0,0,0,0,0,0,0
0.110928000,1,1,1,0,1,1,0,1,0,0,1,0
0.110999000,1,1,1,0,1,1,0,1,0,0,1,1
0.111499000,1,1,1,0,1,1,0,1,0,0,1,0
0.111916000,0,0,0,0,0,0,0,0,0,0,0,0
0.111928000,1,1,0,1,1,1,0,1,0,0,1,0
0.111999000,1,1,0,1,1,1,0,1,0,0,1,1
0.112499000,1,1,0,1,1,1,0,1,0,0,1,0
0.112916000,0,0,0,0,0,0,0,0,0,0,0,0
0.112928000,0,0,0,1,1,1,0,1,0,0,1,0
0.112999000,0,0,0,1,1,1,0,1,0,0,1,1
0.113499000,0,0,0,1,1,1,0,1,0,0,1,0
0.113916000,0,0,0,0,0,0,0,0,0,0,0,0
0.113928000,0,0,1,1,1,1,0,1,0,0,1,0
0.113999000,0,0,1,1,1,1,0,1,0,0,1,1
0.114499000,0,0,1,1,1,1,0,1,0,0,1,0
0.114916000,0,0,0,0,0,0,0,0,0,0,0,0
0.114928000,0,0,1,0,0,0,1,1,0,0,1,0
0.114999000,0,0,1,0,0,0,1,1,0,0,1,1
0.115499000,0,0,1,0,0,0,1,1,0,0,1,0
0.115916000,0,0,0,0,0,0,0,0,0,0,0,0
0.115928000,1,1,0,0,1,1,0,1,0,0,1,0
0.115999000,1,1,0,0,1,1,0,1,0,0,1,1
0.116499000,1,1,0,0,1,1,0,1,0,0,1,0
0.116916000,0,0,0,0,0,0,0,0,0,0,0,0
0.116928000,0,0,0,1,1,1,0,1,0,0,1,0
0.116999000,0,0,0,1,1,1,0,1,0,0,1,1
0.117499000,0,0,0,1,1,1,0,1,0,0,1,0
0.117916000,0,0,0,0,0,0,0,0,0,0,0,0
0.117928000,0,1,0,1,1,1,0,1,0,0,1,0
0.117999000,0,1,0,1,1,1,0,1,0,0,1,1
0.118499000,0,1,0,1,1,1,0,1,0,0,1,0
0.118916000,0,0,0,0,0,0,0,0,0,0,0,0
0.118928000,1,0,1,1,1,1,0,1,0,0,1,0
0.118999000,1,0,1,1,1,1,0,1,0,0,1,1
0.119499000,1,0,1,1,1,1,0,1,0,0,1,0
0.119916000,0,0,0,0,0,0,0,0,0,0,0,0
0.119928000,1,0,0,1,1,1,0,1,0,0,1,0
0.119999000,1,0,0,1,1,1,0,1,0,0,1,1
0.120499000,1,0,0,1,1,1,0,1,0,0,1,0
0.120916000,0,0,0,0,0,0,0,0,0,0,0,0
0.120928000,1,1,1,1,1,1,0,1,0,0,1,0
0.120999000,1,1,1,1,1,1,0,1,0,0,1,1
0.121499000,1,1,1,1,1,1,0,1,0,0,1,0
0.121916000,0,0,0,0,0,0,0,0,0,0,0,0
0.121928000,0,0,0,1,1,1,0,1,0,0,1,0
0.121999000,0,0,0,1,1,1,0,1,0,0,1,1
0.122499000,0,0,0,1,1,1,0,1,0,0,1,0
0.122916000,0,0,0,0,0,0,0,0,0,0,0,0
0.122928000,1,1,1,1,1,1,0,1,0,0,1,0
0.122999000,1,1,1,1,1,1,0,1,0,0,1,1
0.123499000,1,1,1,1,1,1,0,1,0,0,1,0
0.123916000,0,0,0,0,0,0,0,0,0,0,0,0
0.123928000,0,0,1,0,1,1,0,1,0,0,1,0
0.123999000,0,0,1,0,1,1,0,1,0,0,1,1
0.124499000,0,0,1,0,1,1,0,1,0,0,1,0
0.124916000,0,0,0,0,0,0,0,0,0,0,0,0
0.124928000,0,1,1,1,1,1,0,1,0,0,1,0
0.124999000,0,1,1,1,1,1,0,1,0,0,1,1
0.125499000,0,1,1,1,1,1,0,1,0,0,1,0
0.125916000,0,0,0,0,0,0,0,0,0,0,0,0
0.125928000,0,0,0,1,1,1,0,1,0,0,1,0
0.125999000,0,0,0,1,1,1,0,1,0,0,1,1
0.126499000,0,0,0,1,1,1,0,1,0,0,1,0
0.126916000,0,0,0,0,0,0,0,0,0,0,0,0
0.126928000,1,1,1,1,1,1,0,1,0,0,1,0
0.126999000,1,1,1,1,1,1,0,1,0,0,1,1
0.127499000,1,1,1,1,1,1,0,1,0,0,1,0
0.127916000,0,0,0,0,0,0,0,0,0,0,0,0
0.127928000,1,0,0,1,1,1,0,1,0,0,1,0
0.127999000,1,0,0,1,1,1,0,1,0,0,1,1
0.128499000,1,0,0,1,1,1,0,1,0,0,1,0
0.128916000,0,0,0,0,0,0,0,0,0,0,0,0
0.128928000,1,1,1,1,1,1,0,1,0,0,1,0
0.128999000,1,1,1,1,1,1,0,1,0,0,1,1
0.129499000,1,1,1,1,1,1,0,1,0,0,1,0
0.129916000,0,0,0,0,0,0,0,0,0,0,0,0
0.129928000,1,0,0,1,1,1,0,1,0,0,1,0
0.129999000,1,0,0,1,1,1,0,1,0,0,1,1
0.130499000,1,0,0,1,1,1,0,1,0,0,1,0
0.130916000,0,0,0,0,0,0,0,0,0,0,0,0
0.130928000,0,0,1,0,1,1,0,1,0,0,1,0
0.130999000,0,0,1,0,1,1,0,1,0,0,1,1
0.131499000,0,0,1,0,1,1,0,1,0,0,1,0
0.131916000,0,0,0,0,0,0,0,0,0,0,0,0
0.131928000,1,1,0,1,1,1,0,1,0,0,1,0
0.131999000,1,1,0,1,1,1,0,1,0,0,1,1
0.132499000,1,1,0,1,1,1,0,1,0,0,1,0
0.132916000,0,0,0,0,0,0,0,0,0,0,0,0
0.132928000,0,0,1,1,1,1,0,1,0,0,1,0
0.132999000,0,0,1,1,1,1,0,1,0,0,1,1
0.133499000,0,0,1,1,1,1,0,1,0,0,1,0
0.133916000,0,0,0,0,0,0,0,0,0,0,0,0
0.133928000,0,1,1,1,1,1,0,1,0,0,1,0
0.133999000,0,1,1,1,1,1,0,1,0,0,1,1
0.134499000,0,1,1,1,1,1,0,1,0,0,1,0
0.134916000,0,0,0,0,0,0,0,0,0,0,0,0
