Time [s],Channel 0,Channel 1,Channel 2,Channel 3,Channel 4,Channel 5,Channel 6,Channel 7,Channel 8,Channel 9,Channel 10,Channel 11
-0.422951000,1,1,1,1,1,0,1,0,0,1,0,0
-0.422919000,1,1,1,1,1,0,1,0,0,1,0,1
-0.422419000,1,1,1,1,1,0,1,0,0,1,0,0
-0.422002000,0,0,0,0,0,0,0,0,0,0,0,0
-0.421997000,0,1,0,1,1,0,1,0,0,1,0,0
-0.421919000,0,1,0,1,1,0,1,0,0,1,0,1
-0.421419000,0,1,0,1,1,0,1,0,0,1,0,0
-0.421002000,0,0,0,0,0,0,0,0,0,0,0,0
-0.420997000,1,0,1,0,1,0,1,0,0,1,0,0
-0.420919000,1,0,1,0,1,0,1,0,0,1,0,1
-0.420419000,1,0,1,0,1,0,1,0,0,1,0,0
-0.420002000,0,0,0,0,0,0,0,0,0,0,0,0
-0.419997000,0,1,1,1,0,0,1,0,0,1,0,0
-0.419919000,0,1,1,1,0,0,1,0,0,1,0,1
-0.419419000,0,1,1,1,0,0,1,0,0,1,0,0
-0.419002000,0,0,0,0,0,0,0,0,0,0,0,0
-0.418997000,0,0,0,1,0,0,1,0,0,1,0,0
-0.418919000,0,0,0,1,0,0,1,0,0,1,0,1
-0.418419000,0,0,0,1,0,0,1,0,0,1,0,0
-0.418002000,0,0,0,0,0,0,0,0,0,0,0,0
-0.417997000,1,1,0,0,0,0,1,0,0,1,0,0
-0.417919000,1,1,0,0,0,0,1,0,0,1,0,1
-0.417419000,1,1,0,0,0,0,1,0,0,1,0,0
-0.417002000,0,0,0,0,0,0,0,0,0,0,0,0
-0.416997000,0,1,1,1,1,1,0,0,0,1,0,0
-0.416919000,0,1,1,1,1,1,0,0,0,1,0,1
-0.416419000,0,1,1,1,1,1,0,0,0,1,0,0
-0.416002000,0,0,0,0,0,0,0,0,0,0,0,0
-0.415997000,1,1,1,0,1,1,0,0,0,1,0,0
-0.415919000,1,1,1,0,1,1,0,0,0,1,0,1
-0.415419000,1,1,1,0,1,1,0,0,0,1,0,0
-0.415002000,0,0,0,0,0,0,0,0,0,0,0,0
-0.414997000,1,0,0,0,1,1,0,0,0,1,0,0
-0.414919000,1,0,0,0,1,1,0,0,0,1,0,1
-0.414419000,1,0,0,0,1,1,0,0,0,1,0,0
-0.414002000,0,0,0,0,0,0,0,0,0,0,0,0
-0.413997000,0,0,1,1,0,1,0,0,0,1,0,0
-0.413919000,0,0,1,1,0,1,0,0,0,1,0,1
-0.413419000,0,0,1,1,0,1,0,0,0,1,0,0
-0.413002000,0,0,0,0,0,0,0,0,0,0,0,0
-0.412997000,0,1,1,0,0,1,0,0,0,1,0,0
-0.412919000,0,1,1,0,0,1,0,0,0,1,0,1
-0.412419000,0,1,1,0,0,1,0,0,0,1,0,0
-0.412002000,0,0,0,0,0,0,0,0,0,0,0,0
-0.411997000,0,0,0,0,0,1,0,0,0,1,0,0
-0.411919000,0,0,0,0,0,1,0,0,0,1,0,1
-0.411419000,0,0,0,0,0,1,0,0,0,1,0,0
-0.411002000,0,0,0,0,0,0,0,0,0,0,0,0
-0.410997000,1,0,0,1,1,0,0,0,0,1,0,0
-0.410919000,1,0,0,1,1,0,0,0,0,1,0,1
-0.410419000,1,0,0,1,1,0,0,0,0,1,0,0
-0.410002000,0,0,0,0,0,0,0,0,0,0,0,0
-0.409997000,1,0,1,0,1,0,0,0,0,1,0,0
-0.409919000,1,0,1,0,1,0,0,0,0,1,0,1
-0.409419000,1,0,1,0,1,0,0,0,0,1,0,0
-0.409002000,0,0,0,0,0,0,0,0,0,0,0,0
-0.408997000,0,0,0,0,1,0,0,0,0,1,0,0
-0.408919000,0,0,0,0,1,0,0,0,0,1,0,1
-0.408419000,0,0,0,0,1,0,0,0,0,1,0,0
-0.408002000,0,0,0,0,0,0,0,0,0,0,0,0
-0.407997000,0,1,0,1,0,0,0,0,0,1,0,0
-0.407919000,0,1,0,1,0,0,0,0,0,1,0,1
-0.407419000,0,1,0,1,0,0,0,0,0,1,0,0
-0.407002000,0,0,0,0,0,0,0,0,0,0,0,0
-0.406997000,0,0,1,0,0,0,0,0,0,1,0,0
-0.406919000,0,0,1,0,0,0,0,0,0,1,0,1
-0.406419000,0,0,1,0,0,0,0,0,0,1,0,0
-0.406002000,0,0,0,0,0,0,0,0,0,0,0,0
-0.405997000,0,0,1,1,1,1,1,1,1,0,0,0
-0.405919000,0,0,1,1,1,1,1,1,1,0,0,1
-0.405419000,0,0,1,1,1,1,1,1,1,0,0,0
-0.405002000,0,0,0,0,0,0,0,0,0,0,0,0
-0.404997000,1,1,1,0,1,1,1,1,1,0,0,0
-0.404919000,1,1,1,0,1,1,1,1,1,0,0,1
-0.404419000,1,1,1,0,1,1,1,1,1,0,0,0
-0.404002000,0,0,0,0,0,0,0,0,0,0,0,0
-0.403997000,0,1,0,0,1,1,1,1,1,0,0,0
-0.403919000,0,1,0,0,1,1,1,1,1,0,0,1
-0.403419000,0,1,0,0,1,1,1,1,1,0,0,0
-0.403002000,0,0,0,0,0,0,0,0,0,0,0,0
-0.402997000,1,0,1,1,0,1,1,1,1,0,0,0
-0.402919000,1,0,1,1,0,1,1,1,1,0,0,1
-0.402419000,1,0,1,1,0,1,1,1,1,0,0,0
-0.402002000,0,0,0,0,0,0,0,0,0,0,0,0
-0.401997000,1,1,1,0,0,1,1,1,1,0,0,0
-0.401919000,1,1,1,0,0,1,1,1,1,0,0,1
-0.401419000,1,1,1,0,0,1,1,1,1,0,0,0
-0.401002000,0,0,0,0,0,0,0,0,0,0,0,0
-0.400997000,1,1,1,1,1,0,1,1,1,0,0,0
-0.400919000,1,1,1,1,1,0,1,1,1,0,0,1
-0.400419000,1,1,1,1,1,0,1,1,1,0,0,0
-0.400002000,0,0,0,0,0,0,0,0,0,0,0,0
-0.399997000,1,1,0,1,1,0,1,1,1,0,0,0
-0.399919000,1,1,0,1,1,0,1,1,1,0,0,1
-0.399419000,1,1,0,1,1,0,1,1,1,0,0,0
-0.399002000,0,0,0,0,0,0,0,0,0,0,0,0
-0.398997000,0,1,1,0,1,0,1,1,1,0,0,0
-0.398919000,0,1,1,0,1,0,1,1,1,0,0,1
-0.398419000,0,1,1,0,1,0,1,1,1,0,0,0
-0.398002000,0,0,0,0,0,0,0,0,0,0,0,0
-0.397997000,1,0,0,0,1,0,1,1,1,0,0,0
-0.397919000,1,0,0,0,1,0,1,1,1,0,0,1
-0.397419000,1,0,0,0,1,0,1,1,1,0,0,0
-0.397002000,0,0,0,0,0,0,0,0,0,0,0,0
-0.396997000,0,1,0,1,0,0,1,1,1,0,0,0
-0.396919000,0,1,0,1,0,0,1,1,1,0,0,1
-0.396419000,0,1,0,1,0,0,1,1,1,0,0,0
-0.396002000,0,0,0,0,0,0,0,0,0,0,0,0
-0.395997000,1,0,1,0,0,0,1,1,1,0,0,0
-0.395919000,1,0,1,0,0,0,1,1,1,0,0,1
-0.395419000,1,0,1,0,0,0,1,1,1,0,0,0
-0.395002000,0,0,0,0,0,0,0,0,0,0,0,0
-0.394997000,1,0,0,0,0,0,1,1,1,0,0,0
-0.394919000,1,0,0,0,0,0,1,1,1,0,0,1
-0.394419000,1,0,0,0,0,0,1,1,1,0,0,0
-0.394002000,0,0,0,0,0,0,0,0,0,0,0,0
-0.393997000,1,0,1,1,1,1,0,1,1,0,0,0
-0.393919000,1,0,1,1,1,1,0,1,1,0,0,1
-0.393419000,1,0,1,1,1,1,0,1,1,0,0,0
-0.393002000,0,0,0,0,0,0,0,0,0,0,0,0
-0.392997000,0,1,1,0,1,1,0,1,1,0,0,0
-0.392919000,0,1,1,0,1,1,0,1,1,0,0,1
-0.392419000,0,1,1,0,1,1,0,1,1,0,0,0
-0.392002000,0,0,0,0,0,0,0,0,0,0,0,0
-0.391997000,1,1,1,1,0,1,0,1,1,0,0,0
-0.391919000,1,1,1,1,0,1,0,1,1,0,0,1
-0.391419000,1,1,1,1,0,1,0,1,1,0,0,0
-0.391002000,0,0,0,0,0,0,0,0,0,0,0,0
-0.390997000,1,1,0,1,0,1,0,1,1,0,0,0
-0.390919000,1,1,0,1,0,1,0,1,1,0,0,1
-0.390419000,1,1,0,1,0,1,0,1,1,0,0,0
-0.390002000,0,0,0,0,0,0,0,0,0,0,0,0
-0.389997000,0,1,1,0,0,1,0,1,1,0,0,0
-0.389919000,0,1,1,0,0,1,0,1,1,0,0,1
-0.389419000,0,1,1,0,0,1,0,1,1,0,0,0
-0.389002000,0,0,0,0,0,0,0,0,0,0,0,0
-0.388997000,1,0,0,0,0,1,0,1,1,0,0,0
-0.388919000,1,0,0,0,0,1,0,1,1,0,0,1
-0.388419000,1,0,0,0,0,1,0,1,1,0,0,0
-0.388002000,0,0,0,0,0,0,0,0,0,0,0,0
-0.387997000,1,1,0,1,1,0,0,1,1,0,0,0
-0.387919000,1,1,0,1,1,0,0,1,1,0,0,1
-0.387419000,1,1,0,1,1,0,0,1,1,0,0,0
-0.387002000,0,0,0,0,0,0,0,0,0,0,0,0
-0.386997000,1,0,1,0,1,0,0,1,1,0,0,0
-0.386919000,1,0,1,0,1,0,0,1,1,0,0,1
-0.386419000,1,0,1,0,1,0,0,1,1,0,0,0
-0.386002000,0,0,0,0,0,0,0,0,0,0,0,0
-0.385997000,1,0,0,0,1,0,0,1,1,0,0,0
-0.385919000,1,0,0,0,1,0,0,1,1,0,0,1
-0.385419000,1,0,0,0,1,0,0,1,1,0,0,0
-0.385002000,0,0,0,0,0,0,0,0,0,0,0,0
-0.384997000,1,0,1,1,0,0,0,1,1,0,0,0
-0.384919000,1,0,1,1,0,0,0,1,1,0,0,1
-0.384419000,1,0,1,1,0,0,0,1,1,0,0,0
-0.384002000,0,0,0,0,0,0,0,0,0,0,0,0
-0.383997000,1,1,1,0,0,0,0,1,1,0,0,0
-0.383919000,1,1,1,0,0,0,0,1,1,0,0,1
-0.383419000,1,1,1,0,0,0,0,1,1,0,0,0
-0.383002000,0,0,0,0,0,0,0,0,0,0,0,0
-0.382997000,1,0,0,0,0,0,0,1,1,0,0,0
-0.382919000,1,0,0,0,0,0,0,1,1,0,0,1
-0.382419000,1,0,0,0,0,0,0,1,1,0,0,0
-0.382002000,0,0,0,0,0,0,0,0,0,0,0,0
-0.381997000,1,0,1,1,1,1,1,0,1,0,0,0
-0.381919000,1,0,1,1,1,1,1,0,1,0,0,1
-0.381419000,1,0,1,1,1,1,1,0,1,0,0,0
-0.381002000,0,0,0,0,0,0,0,0,0,0,0,0
-0.380997000,1,0,0,1,1,1,1,0,1,0,0,0
-0.380919000,1,0,0,1,1,1,1,0,1,0,0,1
-0.380419000,1,0,0,1,1,1,1,0,1,0,0,0
-0.380002000,0,0,0,0,0,0,0,0,0,0,0,0
-0.379997000,0,0,1,0,1,1,1,0,1,0,0,0
-0.379919000,0,0,1,0,1,1,1,0,1,0,0,1
-0.379419000,0,0,1,0,1,1,1,0,1,0,0,0
-0.379002000,0,0,0,0,0,0,0,0,0,0,0,0
-0.378997000,1,0,1,1,0,1,1,0,1,0,0,0
-0.378919000,1,0,1,1,0,1,1,0,1,0,0,1
-0.378419000,1,0,1,1,0,1,1,0,1,0,0,0
-0.378002000,0,0,0,0,0,0,0,0,0,0,0,0
-0.377997000,1,0,0,1,0,1,1,0,1,0,0,0
-0.377919000,1,0,0,1,0,1,1,0,1,0,0,1
-0.377419000,1,0,0,1,0,1,1,0,1,0,0,0
-0.377002000,0,0,0,0,0,0,0,0,0,0,0,0
-0.376997000,1,0,1,0,0,1,1,0,1,0,0,0
-0.376919000,1,0,1,0,0,1,1,0,1,0,0,1
-0.376419000,1,0,1,0,0,1,1,0,1,0,0,0
-0.376002000,0,0,0,0,0,0,0,0,0,0,0,0
-0.375997000,1,1,1,1,1,0,1,0,1,0,0,0
-0.375919000,1,1,1,1,1,0,1,0,1,0,0,1
-0.375419000,1,1,1,1,1,0,1,0,1,0,0,0
-0.375002000,0,0,0,0,0,0,0,0,0,0,0,0
-0.374997000,1,0,0,1,1,0,1,0,1,0,0,0
-0.374919000,1,0,0,1,1,0,1,0,1,0,0,1
-0.374419000,1,0,0,1,1,0,1,0,1,0,0,0
-0.374002000,0,0,0,0,0,0,0,0,0,0,0,0
-0.373997000,1,0,1,0,1,0,1,0,1,0,0,0
-0.373919000,1,0,1,0,1,0,1,0,1,0,0,1
-0.373419000,1,0,1,0,1,0,1,0,1,0,0,0
-0.373002000,0,0,0,0,0,0,0,0,0,0,0,0
-0.372997000,1,0,0,0,1,0,1,0,1,0,0,0
-0.372919000,1,0,0,0,1,0,1,0,1,0,0,1
-0.372419000,1,0,0,0,1,0,1,0,1,0,0,0
-0.372002000,0,0,0,0,0,0,0,0,0,0,0,0
-0.371997000,1,0,1,1,0,0,1,0,1,0,0,0
-0.371919000,1,0,1,1,0,0,1,0,1,0,0,1
-0.371419000,1,0,1,1,0,0,1,0,1,0,0,0
-0.371002000,0,0,0,0,0,0,0,0,0,0,0,0
-0.370997000,0,1,1,0,0,0,1,0,1,0,0,0
-0.370919000,0,1,1,0,0,0,1,0,1,0,0,1
-0.370419000,0,1,1,0,0,0,1,0,1,0,0,0
-0.370002000,0,0,0,0,0,0,0,0,0,0,0,0
-0.369997000,1,0,0,0,0,0,1,0,1,0,0,0
-0.369919000,1,0,0,0,0,0,1,0,1,0,0,1
-0.369419000,1,0,0,0,0,0,1,0,1,0,0,0
-0.369002000,0,0,0,0,0,0,0,0,0,0,0,0
-0.368997000,0,1,1,1,1,1,0,0,1,0,0,0
-0.368919000,0,1,1,1,1,1,0,0,1,0,0,1
-0.368419000,0,1,1,1,1,1,0,0,1,0,0,0
-0.368002000,0,0,0,0,0,0,0,0,0,0,0,0
-0.367997000,1,0,0,1,1,1,0,0,1,0,0,0
-0.367919000,1,0,0,1,1,1,0,0,1,0,0,1
-0.367419000,1,0,0,1,1,1,0,0,1,0,0,0
-0.367002000,0,0,0,0,0,0,0,0,0,0,0,0
-0.366997000,1,0,1,0,1,1,0,0,1,0,0,0
-0.366919000,1,0,1,0,1,1,0,0,1,0,0,1
-0.366419000,1,0,1,0,1,1,0,0,1,0,0,0
-0.366002000,0,0,0,0,0,0,0,0,0,0,0,0
-0.365997000,1,1,1,1,0,1,0,0,1,0,0,0
-0.365919000,1,1,1,1,0,1,0,0,1,0,0,1
-0.365419000,1,1,1,1,0,1,0,0,1,0,0,0
-0.365002000,0,0,0,0,0,0,0,0,0,0,0,0
-0.364997000,1,1,0,1,0,1,0,0,1,0,0,0
-0.364919000,1,1,0,1,0,1,0,0,1,0,0,1
-0.364419000,1,1,0,1,0,1,0,0,1,0,0,0
-0.364002000,0,0,0,0,0,0,0,0,0,0,0,0
-0.363997000,1,1,1,0,0,1,0,0,1,0,0,0
-0.363919000,1,1,1,0,0,1,0,0,1,0,0,1
-0.363419000,1,1,1,0,0,1,0,0,1,0,0,0
-0.363002000,0,0,0,0,0,0,0,0,0,0,0,0
-0.362997000,1,1,0,0,0,1,0,0,1,0,0,0
-0.362919000,1,1,0,0,0,1,0,0,1,0,0,1
-0.362419000,1,1,0,0,0,1,0,0,1,0,0,0
-0.362002000,0,0,0,0,0,0,0,0,0,0,0,0
-0.361997000,1,0,1,1,1,0,0,0,1,0,0,0
-0.361919000,1,0,1,1,1,0,0,0,1,0,0,1
-0.361419000,1,0,1,1,1,0,0,0,1,0,0,0
-0.361002000,0,0,0,0,0,0,0,0,0,0,0,0
-0.360997000,0,0,0,1,1,0,0,0,1,0,0,0
-0.360919000,0,0,0,1,1,0,0,0,1,0,0,1
-0.360419000,0,0,0,1,1,0,0,0,1,0,0,0
-0.360002000,0,0,0,0,0,0,0,0,0,0,0,0
-0.359997000,1,0,1,0,1,0,0,0,1,0,0,0
-0.359919000,1,0,1,0,1,0,0,0,1,0,0,1
-0.359419000,1,0,1,0,1,0,0,0,1,0,0,0
-0.359002000,0,0,0,0,0,0,0,0,0,0,0,0
-0.358997000,1,0,0,0,1,0,0,0,1,0,0,0
-0.358919000,1,0,0,0,1,0,0,0,1,0,0,1
-0.358419000,1,0,0,0,1,0,0,0,1,0,0,0
-0.358002000,0,0,0,0,0,0,0,0,0,0,0,0
-0.357997000,0,0,1,1,0,0,0,0,1,0,0,0
-0.357919000,0,0,1,1,0,0,0,0,1,0,0,1
-0.357419000,0,0,1,1,0,0,0,0,1,0,0,0
-0.357002000,0,0,0,0,0,0,0,0,0,0,0,0
-0.356998000,0,0,0,1,0,0,0,0,1,0,0,0
-0.356919000,0,0,0,1,0,0,0,0,1,0,0,1
-0.356419000,0,0,0,1,0,0,0,0,1,0,0,0
-0.356002000,0,0,0,0,0,0,0,0,0,0,0,0
-0.355998000,0,0,1,0,0,0,0,0,1,0,0,0
-0.355919000,0,0,1,0,0,0,0,0,1,0,0,1
-0.355419000,0,0,1,0,0,0,0,0,1,0,0,0
-0.355002000,0,0,0,0,0,0,0,0,0,0,0,0
-0.354998000,0,0,0,0,0,0,0,0,1,0,0,0
-0.354919000,0,0,0,0,0,0,0,0,1,0,0,1
-0.354419000,0,0,0,0,0,0,0,0,1,0,0,0
-0.354002000,0,0,0,0,0,0,0,0,0,0,0,0
-0.353998000,0,0,0,1,1,1,1,1,0,0,0,0
-0.353997000,1,1,0,1,1,1,1,1,0,0,0,0
-0.353919000,1,1,0,1,1,1,1,1,0,0,0,1
-0.353419000,1,1,0,1,1,1,1,1,0,0,0,0
-0.353002000,0,0,0,0,0,0,0,0,0,0,0,0
-0.352998000,0,1,1,0,1,1,1,1,0,0,0,0
-0.352919000,0,1,1,0,1,1,1,1,0,0,0,1
-0.352419000,0,1,1,0,1,1,1,1,0,0,0,0
-0.352002000,0,0,0,0,0,0,0,0,0,0,0,0
-0.351998000,0,1,0,0,1,1,1,1,0,0,0,0
-0.351919000,0,1,0,0,1,1,1,1,0,0,0,1
-0.351419000,0,1,0,0,1,1,1,1,0,0,0,0
-0.351002000,0,0,0,0,0,0,0,0,0,0,0,0
-0.350998000,1,1,1,1,0,1,1,1,0,0,0,0
-0.350919000,1,1,1,1,0,1,1,1,0,0,0,1
-0.350419000,1,1,1,1,0,1,1,1,0,0,0,0
-0.350002000,0,0,0,0,0,0,0,0,0,0,0,0
-0.349998000,0,1,0,1,0,1,1,1,0,0,0,0
-0.349919000,0,1,0,1,0,1,1,1,0,0,0,1
-0.349419000,0,1,0,1,0,1,1,1,0,0,0,0
-0.349002000,0,0,0,0,0,0,0,0,0,0,0,0
-0.348998000,0,1,1,0,0,1,1,1,0,0,0,0
-0.348919000,0,1,1,0,0,1,1,1,0,0,0,1
-0.348419000,0,1,1,0,0,1,1,1,0,0,0,0
-0.348002000,0,0,0,0,0,0,0,0,0,0,0,0
-0.347998000,0,1,0,0,0,1,1,1,0,0,0,0
-0.347919000,0,1,0,0,0,1,1,1,0,0,0,1
-0.347419000,0,1,0,0,0,1,1,1,0,0,0,0
-0.347002000,0,0,0,0,0,0,0,0,0,0,0,0
-0.346998000,0,1,1,1,1,0,1,1,0,0,0,0
-0.346919000,0,1,1,1,1,0,1,1,0,0,0,1
-0.346419000,0,1,1,1,1,0,1,1,0,0,0,0
-0.346002000,0,0,0,0,0,0,0,0,0,0,0,0
-0.345998000,1,1,0,1,1,0,1,1,0,0,0,0
-0.345919000,1,1,0,1,1,0,1,1,0,0,0,1
-0.345419000,1,1,0,1,1,0,1,1,0,0,0,0
-0.345003000,1,1,0,1,0,0,1,1,0,0,0,0
-0.345002000,0,0,0,0,0,0,0,0,0,0,0,0
-0.344998000,1,1,1,0,1,0,1,1,0,0,0,0
-0.344919000,1,1,1,0,1,0,1,1,0,0,0,1
-0.344419000,1,1,1,0,1,0,1,1,0,0,0,0
-0.344003000,0,1,1,0,1,0,1,1,0,0,0,0
-0.344002000,0,0,0,0,0,0,0,0,0,0,0,0
-0.343998000,1,1,0,0,1,0,1,1,0,0,0,0
-0.343919000,1,1,0,0,1,0,1,1,0,0,0,1
-0.343419000,1,1,0,0,1,0,1,1,0,0,0,0
-0.343003000,0,0,0,0,0,0,0,0,0,0,0,0
-0.342998000,0,0,0,0,1,0,1,1,0,0,0,0
-0.342919000,0,0,0,0,1,0,1,1,0,0,0,1
-0.342419000,0,0,0,0,1,0,1,1,0,0,0,0
-0.342003000,0,0,0,0,0,0,0,0,0,0,0,0
-0.341998000,0,0,1,1,0,0,1,1,0,0,0,0
-0.341919000,0,0,1,1,0,0,1,1,0,0,0,1
-0.341419000,0,0,1,1,0,0,1,1,0,0,0,0
-0.341003000,0,0,0,0,0,0,0,0,0,0,0,0
-0.340998000,0,0,0,1,0,0,1,1,0,0,0,0
-0.340919000,0,0,0,1,0,0,1,1,0,0,0,1
-0.340419000,0,0,0,1,0,0,1,1,0,0,0,0
-0.340003000,0,0,0,0,0,0,0,0,0,0,0,0
-0.339998000,1,1,0,0,0,0,1,1,0,0,0,0
-0.339919000,1,1,0,0,0,0,1,1,0,0,0,1
-0.339419000,1,1,0,0,0,0,1,1,0,0,0,0
-0.339003000,0,0,0,0,0,0,0,0,0,0,0,0
-0.338998000,1,1,1,1,1,1,0,1,0,0,0,0
-0.338919000,1,1,1,1,1,1,0,1,0,0,0,1
-0.338419000,1,1,1,1,1,1,0,1,0,0,0,0
-0.338003000,0,0,0,0,0,0,0,0,0,0,0,0
-0.337998000,0,0,1,1,1,1,0,1,0,0,0,0
-0.337919000,0,0,1,1,1,1,0,1,0,0,0,1
-0.337419000,0,0,1,1,1,1,0,1,0,0,0,0
-0.337003000,0,0,0,0,0,0,0,0,0,0,0,0
-0.336998000,0,0,0,1,1,1,0,1,0,0,0,0
-0.336919000,0,0,0,1,1,1,0,1,0,0,0,1
-0.336419000,0,0,0,1,1,1,0,1,0,0,0,0
-0.336003000,0,0,0,0,0,0,0,0,0,0,0,0
-0.335998000,0,0,1,0,1,1,0,1,0,0,0,0
-0.335919000,0,0,1,0,1,1,0,1,0,0,0,1
-0.335419000,0,0,1,0,1,1,0,1,0,0,0,0
-0.335003000,0,0,0,0,0,0,0,0,0,0,0,0
-0.334998000,1,0,0,0,1,1,0,1,0,0,0,0
-0.334919000,1,0,0,0,1,1,0,1,0,0,0,1
-0.334419000,1,0,0,0,1,1,0,1,0,0,0,0
-0.334003000,0,0,0,0,0,0,0,0,0,0,0,0
-0.333998000,0,1,1,1,0,1,0,1,0,0,0,0
-0.333919000,0,1,1,1,0,1,0,1,0,0,0,1
-0.333419000,0,1,1,1,0,1,0,1,0,0,0,0
-0.333003000,0,0,0,0,0,0,0,0,0,0,0,0
-0.332998000,0,1,0,1,0,1,0,1,0,0,0,0
-0.332919000,0,1,0,1,0,1,0,1,0,0,0,1
-0.332419000,0,1,0,1,0,1,0,1,0,0,0,0
-0.332003000,0,0,0,0,0,0,0,0,0,0,0,0
-0.331998000,0,1,1,0,0,1,0,1,0,0,0,0
-0.331919000,0,1,1,0,0,1,0,1,0,0,0,1
-0.331419000,0,1,1,0,0,1,0,1,0,0,0,0
-0.331003000,0,0,0,0,0,0,0,0,0,0,0,0
-0.330998000,0,1,0,0,0,1,0,1,0,0,0,0
-0.330919000,0,1,0,0,0,1,0,1,0,0,0,1
-0.330419000,0,1,0,0,0,1,0,1,0,0,0,0
-0.330003000,0,0,0,0,0,0,0,0,0,0,0,0
-0.329998000,0,0,0,0,0,1,0,1,0,0,0,0
-0.329919000,0,0,0,0,0,1,0,1,0,0,0,1
-0.329419000,0,0,0,0,0,1,0,1,0,0,0,0
-0.329003000,0,0,0,0,0,0,0,0,0,0,0,0
-0.328998000,0,0,1,1,1,0,0,1,0,0,0,0
-0.328919000,0,0,1,1,1,0,0,1,0,0,0,1
-0.328419000,0,0,1,1,1,0,0,1,0,0,0,0
-0.328003000,0,0,0,0,0,0,0,0,0,0,0,0
-0.327998000,1,0,0,1,1,0,0,1,0,0,0,0
-0.327919000,1,0,0,1,1,0,0,1,0,0,0,1
-0.327419000,1,0,0,1,1,0,0,1,0,0,0,0
-0.327003000,0,0,0,0,0,0,0,0,0,0,0,0
-0.326998000,1,0,1,0,1,0,0,1,0,0,0,0
-0.326919000,1,0,1,0,1,0,0,1,0,0,0,1
-0.326419000,1,0,1,0,1,0,0,1,0,0,0,0
-0.326003000,0,0,0,0,0,0,0,0,0,0,0,0
-0.325998000,0,1,0,0,1,0,0,1,0,0,0,0
-0.325919000,0,1,0,0,1,0,0,1,0,0,0,1
-0.325419000,0,1,0,0,1,0,0,1,0,0,0,0
-0.325003000,0,0,0,0,0,0,0,0,0,0,0,0
-0.324998000,0,0,0,0,1,0,0,1,0,0,0,0
-0.324919000,0,0,0,0,1,0,0,1,0,0,0,1
-0.324419000,0,0,0,0,1,0,0,1,0,0,0,0
-0.324003000,0,0,0,0,0,0,0,0,0,0,0,0
-0.323998000,1,1,0,1,0,0,0,1,0,0,0,0
-0.323919000,1,1,0,1,0,0,0,1,0,0,0,1
-0.323419000,1,1,0,1,0,0,0,1,0,0,0,0
-0.323003000,0,0,0,0,0,0,0,0,0,0,0,0
-0.322998000,0,0,0,1,0,0,0,1,0,0,0,0
-0.322919000,0,0,0,1,0,0,0,1,0,0,0,1
-0.322419000,0,0,0,1,0,0,0,1,0,0,0,0
-0.322003000,0,0,0,0,0,0,0,0,0,0,0,0
-0.321998000,1,0,1,0,0,0,0,1,0,0,0,0
-0.321919000,1,0,1,0,0,0,0,1,0,0,0,1
-0.321419000,1,0,1,0,0,0,0,1,0,0,0,0
-0.321003000,0,0,0,0,0,0,0,0,0,0,0,0
-0.320998000,1,1,0,0,0,0,0,1,0,0,0,0
-0.320919000,1,1,0,0,0,0,0,1,0,0,0,1
-0.320419000,1,1,0,0,0,0,0,1,0,0,0,0
-0.320003000,0,0,0,0,0,0,0,0,0,0,0,0
-0.319998000,1,1,1,1,1,1,1,0,0,0,0,0
-0.319919000,1,1,1,1,1,1,1,0,0,0,0,1
-0.319419000,1,1,1,1,1,1,1,0,0,0,0,0
-0.319003000,0,0,0,0,0,0,0,0,0,0,0,0
-0.318998000,0,0,1,1,1,1,1,0,0,0,0,0
-0.318919000,0,0,1,1,1,1,1,0,0,0,0,1
-0.318419000,0,0,1,1,1,1,1,0,0,0,0,0
-0.318003000,0,0,0,0,0,0,0,0,0,0,0,0
-0.317998000,1,0,0,1,1,1,1,0,0,0,0,0
-0.317919000,1,0,0,1,1,1,1,0,0,0,0,1
-0.317419000,1,0,0,1,1,1,1,0,0,0,0,0
-0.317003000,0,0,0,0,0,0,0,0,0,0,0,0
-0.316998000,0,1,1,0,1,1,1,0,0,0,0,0
-0.316919000,0,1,1,0,1,1,1,0,0,0,0,1
-0.316419000,0,1,1,0,1,1,1,0,0,0,0,0
-0.316003000,0,0,0,0,0,0,0,0,0,0,0,0
-0.315998000,0,0,1,0,1,1,1,0,0,0,0,0
-0.315919000,0,0,1,0,1,1,1,0,0,0,0,1
-0.315419000,0,0,1,0,1,1,1,0,0,0,0,0
-0.315003000,0,0,0,0,0,0,0,0,0,0,0,0
-0.314998000,1,0,0,0,1,1,1,0,0,0,0,0
-0.314919000,1,0,0,0,1,1,1,0,0,0,0,1
-0.314419000,1,0,0,0,1,1,1,0,0,0,0,0
-0.314003000,0,0,0,0,0,0,0,0,0,0,0,0
-0.313998000,0,1,1,1,0,1,1,0,0,0,0,0
-0.313919000,0,1,1,1,0,1,1,0,0,0,0,1
-0.313419000,0,1,1,1,0,1,1,0,0,0,0,0
-0.313003000,0,0,0,0,0,0,0,0,0,0,0,0
-0.312998000,0,1,0,1,0,1,1,0,0,0,0,0
-0.312919000,0,1,0,1,0,1,1,0,0,0,0,1
-0.312419000,0,1,0,1,0,1,1,0,0,0,0,0
-0.312003000,0,0,0,0,0,0,0,0,0,0,0,0
-0.311998000,0,0,0,1,0,1,1,0,0,0,0,0
-0.311919000,0,0,0,1,0,1,1,0,0,0,0,1
-0.311419000,0,0,0,1,0,1,1,0,0,0,0,0
-0.311003000,0,0,0,0,0,0,0,0,0,0,0,0
-0.310998000,0,1,1,0,0,1,1,0,0,0,0,0
-0.310919000,0,1,1,0,0,1,1,0,0,0,0,1
-0.310419000,0,1,1,0,0,1,1,0,0,0,0,0
-0.310003000,0,0,0,0,0,0,0,0,0,0,0,0
-0.309998000,1,1,0,0,0,1,1,0,0,0,0,0
-0.309919000,1,1,0,0,0,1,1,0,0,0,0,1
-0.309419000,1,1,0,0,0,1,1,0,0,0,0,0
-0.309003000,0,0,0,0,0,0,0,0,0,0,0,0
-0.308998000,1,1,1,1,1,0,1,0,0,0,0,0
-0.308919000,1,1,1,1,1,0,1,0,0,0,0,1
-0.308419000,1,1,1,1,1,0,1,0,0,0,0,0
-0.308003000,0,0,0,0,0,0,0,0,0,0,0,0
-0.307998000,0,1,1,1,1,0,1,0,0,0,0,0
-0.307919000,0,1,1,1,1,0,1,0,0,0,0,1
-0.307419000,0,1,1,1,1,0,1,0,0,0,0,0
-0.307003000,0,0,0,0,0,0,0,0,0,0,0,0
-0.306998000,1,1,0,1,1,0,1,0,0,0,0,0
-0.306919000,1,1,0,1,1,0,1,0,0,0,0,1
-0.306419000,1,1,0,1,1,0,1,0,0,0,0,0
-0.306003000,0,0,0,0,0,0,0,0,0,0,0,0
-0.305998000,1,0,0,1,1,0,1,0,0,0,0,0
-0.305919000,1,0,0,1,1,0,1,0,0,0,0,1
-0.305419000,1,0,0,1,1,0,1,0,0,0,0,0
-0.305003000,0,0,0,0,0,0,0,0,0,0,0,0
-0.304998000,1,0,1,0,1,0,1,0,0,0,0,0
-0.304920000,1,0,1,0,1,0,1,0,0,0,0,1
-0.304420000,1,0,1,0,1,0,1,0,0,0,0,0
-0.304003000,0,0,0,0,0,0,0,0,0,0,0,0
-0.303998000,1,1,0,0,1,0,1,0,0,0,0,0
-0.303920000,1,1,0,0,1,0,1,0,0,0,0,1
-0.303420000,1,1,0,0,1,0,1,0,0,0,0,0
-0.303003000,0,0,0,0,0,0,0,0,0,0,0,0
-0.302998000,0,1,0,0,1,0,1,0,0,0,0,0
-0.302920000,0,1,0,0,1,0,1,0,0,0,0,1
-0.302420000,0,1,0,0,1,0,1,0,0,0,0,0
-0.302003000,0,0,0,0,0,0,0,0,0,0,0,0
-0.301998000,1,1,1,1,0,0,1,0,0,0,0,0
-0.301920000,1,1,1,1,0,0,1,0,0,0,0,1
-0.301420000,1,1,1,1,0,0,1,0,0,0,0,0
-0.301003000,0,0,0,0,0,0,0,0,0,0,0,0
-0.300998000,1,0,1,1,0,0,1,0,0,0,0,0
-0.300920000,1,0,1,1,0,0,1,0,0,0,0,1
-0.300420000,1,0,1,1,0,0,1,0,0,0,0,0
-0.300003000,0,0,0,0,0,0,0,0,0,0,0,0
-0.299998000,1,0,0,1,0,0,1,0,0,0,0,0
-0.299920000,1,0,0,1,0,0,1,0,0,0,0,1
-0.299420000,1,0,0,1,0,0,1,0,0,0,0,0
-0.299003000,0,0,0,0,0,0,0,0,0,0,0,0
-0.298998000,0,0,0,1,0,0,1,0,0,0,0,0
-0.298920000,0,0,0,1,0,0,1,0,0,0,0,1
-0.298420000,0,0,0,1,0,0,1,0,0,0,0,0
-0.298003000,0,0,0,0,0,0,0,0,0,0,0,0
-0.297998000,0,1,1,0,0,0,1,0,0,0,0,0
-0.297920000,0,1,1,0,0,0,1,0,0,0,0,1
-0.297420000,0,1,1,0,0,0,1,0,0,0,0,0
-0.297003000,0,0,0,0,0,0,0,0,0,0,0,0
-0.296998000,0,0,1,0,0,0,1,0,0,0,0,0
-0.296920000,0,0,1,0,0,0,1,0,0,0,0,1
-0.296420000,0,0,1,0,0,0,1,0,0,0,0,0
-0.296003000,0,0,0,0,0,0,0,0,0,0,0,0
-0.295998000,1,0,0,0,0,0,1,0,0,0,0,0
-0.295920000,1,0,0,0,0,0,1,0,0,0,0,1
-0.295420000,1,0,0,0,0,0,1,0,0,0,0,0
-0.295003000,0,0,0,0,0,0,0,0,0,0,0,0
-0.294998000,0,1,1,1,1,1,0,0,0,0,0,0
-0.294920000,0,1,1,1,1,1,0,0,0,0,0,1
-0.294420000,0,1,1,1,1,1,0,0,0,0,0,0
-0.294003000,0,0,0,0,0,0,0,0,0,0,0,0
-0.293998000,1,0,1,1,1,1,0,0,0,0,0,0
-0.293920000,1,0,1,1,1,1,0,0,0,0,0,1
-0.293420000,1,0,1,1,1,1,0,0,0,0,0,0
-0.293003000,0,0,0,0,0,0,0,0,0,0,0,0
-0.292998000,1,1,0,1,1,1,0,0,0,0,0,0
-0.292920000,1,1,0,1,1,1,0,0,0,0,0,1
-0.292420000,1,1,0,1,1,1,0,0,0,0,0,0
-0.292003000,0,0,0,0,0,0,0,0,0,0,0,0
-0.291998000,1,0,0,1,1,1,0,0,0,0,0,0
-0.291920000,1,0,0,1,1,1,0,0,0,0,0,1
-0.291420000,1,0,0,1,1,1,0,0,0,0,0,0
-0.291003000,0,0,0,0,0,0,0,0,0,0,0,0
-0.290998000,0,1,1,0,1,1,0,0,0,0,0,0
-0.290920000,0,1,1,0,1,1,0,0,0,0,0,1
-0.290420000,0,1,1,0,1,1,0,0,0,0,0,0
-0.290003000,0,0,0,0,0,0,0,0,0,0,0,0
-0.289998000,1,0,1,0,1,1,0,0,0,0,0,0
-0.289920000,1,0,1,0,1,1,0,0,0,0,0,1
