Time [s],Channel 0,Channel 1,Channel 2,Channel 3,Channel 4,Channel 5,Channel 6,Channel 7,Channel 8,Channel 9,Channel 10,Channel 11
-0.039247000,0,0,1,1,0,1,0,1,1,0,0,0
-0.039005000,0,0,1,1,0,0,0,1,0,0,0,0
-0.039004000,0,0,0,0,0,0,0,0,0,0,0,0
-0.039000000,0,1,0,1,1,1,1,0,1,0,0,0
-0.038921000,0,1,0,1,1,1,1,0,1,0,0,1
-0.038421000,0,1,0,1,1,1,1,0,1,0,0,0
-0.038005000,0,0,0,0,0,0,0,0,0,0,0,0
-0.038000000,1,1,0,1,0,0,1,0,1,0,0,0
-0.037921000,1,1,0,1,0,0,1,0,1,0,0,1
-0.037421000,1,1,0,1,0,0,1,0,1,0,0,0
-0.037005000,0,0,0,0,0,0,0,0,0,0,0,0
-0.037000000,0,0,0,0,0,1,0,0,1,0,0,0
-0.036921000,0,0,0,0,0,1,0,0,1,0,0,1
-0.036421000,0,0,0,0,0,1,0,0,1,0,0,0
-0.036005000,0,0,0,0,0,0,0,0,0,0,0,0
-0.036000000,1,0,1,0,1,1,1,1,0,0,0,0
-0.035921000,1,0,1,0,1,1,1,1,0,0,0,1
-0.035421000,1,0,1,0,1,1,1,1,0,0,0,0
-0.035005000,0,0,0,0,0,0,0,0,0,0,0,0
-0.035000000,0,0,0,0,1,0,1,1,0,0,0,0
-0.034921000,0,0,0,0,1,0,1,1,0,0,0,1
-0.034421000,0,0,0,0,1,0,1,1,0,0,0,0
-0.034005000,0,0,0,0,0,0,0,0,0,0,0,0
-0.034000000,0,0,1,1,0,1,0,1,0,0,0,0
-0.033921000,0,0,1,1,0,1,0,1,0,0,0,1
-0.033421000,0,0,1,1,0,1,0,1,0,0,0,0
-0.033005000,0,0,0,0,0,0,0,0,0,0,0,0
-0.033000000,1,1,0,1,0,0,0,1,0,0,0,0
-0.032921000,1,1,0,1,0,0,0,1,0,0,0,1
-0.032421000,1,1,0,1,0,0,0,1,0,0,0,0
-0.032005000,0,0,0,0,0,0,0,0,0,0,0,0
-0.032000000,1,0,1,1,0,1,1,0,0,0,0,0
-0.031921000,1,0,1,1,0,1,1,0,0,0,0,1
-0.031421000,1,0,1,1,0,1,1,0,0,0,0,0
-0.031005000,0,0,0,0,0,0,0,0,0,0,0,0
-0.031000000,0,0,1,0,1,0,1,0,0,0,0,0
-0.030921000,0,0,1,0,1,0,1,0,0,0,0,1
-0.030421000,0,0,1,0,1,0,1,0,0,0,0,0
-0.030005000,0,0,0,0,0,0,0,0,0,0,0,0
-0.030000000,0,0,0,0,0,0,1,0,0,0,0,0
-0.029921000,0,0,0,0,0,0,1,0,0,0,0,1
-0.029421000,0,0,0,0,0,0,1,0,0,0,0,0
-0.029005000,0,0,0,0,0,0,0,0,0,0,0,0
-0.029000000,1,0,1,1,0,1,0,0,0,0,0,0
-0.028921000,1,0,1,1,0,1,0,0,0,0,0,1
-0.028421000,1,0,1,1,0,1,0,0,0,0,0,0
-0.028005000,0,0,0,0,0,0,0,0,0,0,0,0
-0.028000000,1,0,0,0,0,1,0,0,0,0,0,0
-0.027921000,1,0,0,0,0,1,0,0,0,0,0,1
-0.027421000,1,0,0,0,0,1,0,0,0,0,0,0
-0.027005000,0,0,0,0,0,0,0,0,0,0,0,0
-0.027000000,0,1,1,0,1,0,0,0,0,0,0,0
-0.026921000,0,1,1,0,1,0,0,0,0,0,0,1
-0.026421000,0,1,1,0,1,0,0,0,0,0,0,0
-0.026005000,0,0,0,0,0,0,0,0,0,0,0,0
-0.026000000,0,0,0,0,1,0,0,0,0,0,0,0
-0.025921000,0,0,0,0,1,0,0,0,0,0,0,1
-0.025421000,0,0,0,0,1,0,0,0,0,0,0,0
-0.025005000,0,0,0,0,0,0,0,0,0,0,0,0
-0.025000000,1,0,1,1,0,0,0,0,0,0,0,0
-0.024921000,1,0,1,1,0,0,0,0,0,0,0,1
-0.024421000,1,0,1,1,0,0,0,0,0,0,0,0
-0.024005000,0,0,0,0,0,0,0,0,0,0,0,0
-0.024000000,1,0,0,0,1,0,0,0,0,0,0,0
-0.023921000,1,0,0,0,1,0,0,0,0,0,0,1
-0.023421000,1,0,0,0,1,0,0,0,0,0,0,0
-0.023005000,0,0,0,0,0,0,0,0,0,0,0,0
-0.023000000,1,1,1,0,1,0,0,0,0,0,0,0
-0.022921000,1,1,1,0,1,0,0,0,0,0,0,1
-0.022421000,1,1,1,0,1,0,0,0,0,0,0,0
-0.022005000,0,0,0,0,0,0,0,0,0,0,0,0
-0.022000000,0,1,0,0,0,1,0,0,0,0,0,0
-0.021921000,0,1,0,0,0,1,0,0,0,0,0,1
-0.021421000,0,1,0,0,0,1,0,0,0,0,0,0
-0.021005000,0,0,0,0,0,0,0,0,0,0,0,0
-0.021000000,1,1,1,1,0,1,0,0,0,0,0,0
-0.020921000,1,1,1,1,0,1,0,0,0,0,0,1
-0.020421000,1,1,1,1,0,1,0,0,0,0,0,0
-0.020005000,0,0,0,0,0,0,0,0,0,0,0,0
-0.020000000,0,0,1,0,0,0,1,0,0,0,0,0
-0.019921000,0,0,1,0,0,0,1,0,0,0,0,1
-0.019421000,0,0,1,0,0,0,1,0,0,0,0,0
-0.019005000,0,0,0,0,0,0,0,0,0,0,0,0
-0.019000000,0,1,0,1,1,0,1,0,0,0,0,0
-0.018921000,0,1,0,1,1,0,1,0,0,0,0,1
-0.018421000,0,1,0,1,1,0,1,0,0,0,0,0
-0.018005000,0,0,0,0,0,0,0,0,0,0,0,0
-0.018000000,1,1,0,0,1,1,1,0,0,0,0,0
-0.017921000,1,1,0,0,1,1,1,0,0,0,0,1
-0.017421000,1,1,0,0,1,1,1,0,0,0,0,0
-0.017005000,0,0,0,0,0,0,0,0,0,0,0,0
-0.017000000,0,0,0,0,1,0,0,1,0,0,0,0
-0.016921000,0,0,0,0,1,0,0,1,0,0,0,1
-0.016421000,0,0,0,0,1,0,0,1,0,0,0,0
-0.016005000,0,0,0,0,0,0,0,0,0,0,0,0
-0.016000000,1,0,0,0,1,1,0,1,0,0,0,0
-0.015921000,1,0,0,0,1,1,0,1,0,0,0,1
-0.015421000,1,0,0,0,1,1,0,1,0,0,0,0
-0.015005000,0,0,0,0,0,0,0,0,0,0,0,0
-0.015000000,1,0,1,0,1,0,1,1,0,0,0,0
-0.014921000,1,0,1,0,1,0,1,1,0,0,0,1
-0.014421000,1,0,1,0,1,0,1,1,0,0,0,0
-0.014005000,0,0,0,0,0,0,0,0,0,0,0,0
-0.014000000,1,0,1,1,1,1,1,1,0,0,0,0
-0.013921000,1,0,1,1,1,1,1,1,0,0,0,1
-0.013421000,1,0,1,1,1,1,1,1,0,0,0,0
-0.013005000,0,0,0,0,0,0,0,0,0,0,0,0
-0.013000000,1,1,1,0,0,1,0,0,1,0,0,0
-0.012921000,1,1,1,0,0,1,0,0,1,0,0,1
-0.012421000,1,1,1,0,0,1,0,0,1,0,0,0
-0.012005000,0,0,0,0,0,0,0,0,0,0,0,0
-0.012000000,1,1,0,0,1,0,1,0,1,0,0,0
-0.011921000,1,1,0,0,1,0,1,0,1,0,0,1
-0.011421000,1,1,0,0,1,0,1,0,1,0,0,0
-0.011005000,0,0,0,0,0,0,0,0,0,0,0,0
-0.011000000,0,0,1,0,0,0,0,1,1,0,0,0
-0.010921000,0,0,1,0,0,0,0,1,1,0,0,1
-0.010421000,0,0,1,0,0,0,0,1,1,0,0,0
-0.010005000,0,0,0,0,0,0,0,0,0,0,0,0
-0.010000000,1,0,1,0,1,1,0,1,1,0,0,0
-0.009921000,1,0,1,0,1,1,0,1,1,0,0,1
-0.009421000,1,0,1,0,1,1,0,1,1,0,0,0
-0.009005000,0,0,0,0,0,0,0,0,0,0,0,0
-0.009000000,0,1,0,1,0,1,1,1,1,0,0,0
-0.008921000,0,1,0,1,0,1,1,1,1,0,0,1
-0.008421000,0,1,0,1,0,1,1,1,1,0,0,0
-0.008005000,0,0,0,0,0,0,0,0,0,0,0,0
-0.008000000,1,0,0,0,0,1,0,0,0,1,0,0
-0.007921000,1,0,0,0,0,1,0,0,0,1,0,1
-0.007421000,1,0,0,0,0,1,0,0,0,1,0,0
-0.007005000,0,0,0,0,0,0,0,0,0,0,0,0
-0.007000000,0,0,0,1,1,0,1,0,0,1,0,0
-0.006921000,0,0,0,1,1,0,1,0,0,1,0,1
-0.006421000,0,0,0,1,1,0,1,0,0,1,0,0
-0.006005000,0,0,0,0,0,0,0,0,0,0,0,0
-0.006000000,0,1,0,0,1,0,0,1,0,1,0,0
-0.005921000,0,1,0,0,1,0,0,1,0,1,0,1
-0.005421000,0,1,0,0,1,0,0,1,0,1,0,0
-0.005005000,0,0,0,0,0,0,0,0,0,0,0,0
-0.005000000,1,0,1,1,0,0,1,1,0,1,0,0
-0.004921000,1,0,1,1,0,0,1,1,0,1,0,1
-0.004421000,1,0,1,1,0,0,1,1,0,1,0,0
-0.004005000,0,0,0,0,0,0,0,0,0,0,0,0
-0.004000000,0,1,0,1,0,0,0,0,1,1,0,0
-0.003921000,0,1,0,1,0,0,0,0,1,1,0,1
-0.003421000,0,1,0,1,0,0,0,0,1,1,0,0
-0.003005000,0,0,0,0,0,0,0,0,0,0,0,0
-0.003000000,0,0,0,1,0,0,1,0,1,1,0,0
-0.002921000,0,0,0,1,0,0,1,0,1,1,0,1
-0.002421000,0,0,0,1,0,0,1,0,1,1,0,0
-0.002005000,0,0,0,0,0,0,0,0,0,0,0,0
-0.002000000,0,1,1,0,0,0,0,1,1,1,0,0
-0.001921000,0,1,1,0,0,0,0,1,1,1,0,1
-0.001421000,0,1,1,0,0,0,0,1,1,1,0,0
-0.001005000,0,0,0,0,0,0,0,0,0,0,0,0
-0.001000000,0,0,1,0,0,0,1,1,1,1,0,0
-0.000921000,0,0,1,0,0,0,1,1,1,1,0,1
-0.000421000,0,0,1,0,0,0,1,1,1,1,0,0
-0.000005000,0,0,0,0,0,0,0,0,0,0,0,0
-0.000000000,1,0,1,0,0,0,0,0,0,0,1,0
0.000079000,1,0,1,0,0,0,0,0,0,0,1,1
0.000578000,1,0,1,0,0,0,0,0,0,0,1,0
0.000995000,0,0,0,0,0,0,0,0,0,0,0,0
0.001000000,0,0,1,0,0,0,1,0,0,0,1,0
0.001078000,0,0,1,0,0,0,1,0,0,0,1,1
0.001578000,0,0,1,0,0,0,1,0,0,0,1,0
0.001995000,0,0,0,0,0,0,0,0,0,0,0,0
0.002000000,0,0,1,0,0,0,0,1,0,0,1,0
0.002078000,0,0,1,0,0,0,0,1,0,0,1,1
0.002578000,0,0,1,0,0,0,0,1,0,0,1,0
0.002995000,0,0,0,0,0,0,0,0,0,0,0,0
0.003000000,1,0,0,0,0,0,1,1,0,0,1,0
0.003078000,1,0,0,0,0,0,1,1,0,0,1,1
0.003578000,1,0,0,0,0,0,1,1,0,0,1,0
0.003995000,0,0,0,0,0,0,0,0,0,0,0,0
0.004000000,0,0,0,0,0,0,0,0,1,0,1,0
0.004078000,0,0,0,0,0,0,0,0,1,0,1,1
0.004578000,0,0,0,0,0,0,0,0,1,0,1,0
0.004995000,0,0,0,0,0,0,0,0,0,0,0,0
0.005000000,1,1,0,1,1,1,0,0,1,0,1,0
0.005078000,1,1,0,1,1,1,0,0,1,0,1,1
0.005578000,1,1,0,1,1,1,0,0,1,0,1,0
0.005995000,0,0,0,0,0,0,0,0,0,0,0,0
0.006000000,0,1,1,0,1,1,1,0,1,0,1,0
0.006078000,0,1,1,0,1,1,1,0,1,0,1,1
0.006578000,0,1,1,0,1,1,1,0,1,0,1,0
0.006995000,0,0,0,0,0,0,0,0,0,0,0,0
0.007000000,1,1,1,1,0,1,0,1,1,0,1,0
0.007078000,1,1,1,1,0,1,0,1,1,0,1,1
0.007578000,1,1,1,1,0,1,0,1,1,0,1,0
0.007995000,0,0,0,0,0,0,0,0,0,0,0,0
0.008000000,0,0,0,1,0,1,1,1,1,0,1,0
0.008078000,0,0,0,1,0,1,1,1,1,0,1,1
0.008578000,0,0,0,1,0,1,1,1,1,0,1,0
0.008995000,0,0,0,0,0,0,0,0,0,0,0,0
0.009000000,0,0,0,0,0,1,0,0,0,1,1,0
0.009078000,0,0,0,0,0,1,0,0,0,1,1,1
0.009578000,0,0,0,0,0,1,0,0,0,1,1,0
0.009995000,0,0,0,0,0,0,0,0,0,0,0,0
0.010000000,0,0,1,0,1,0,1,0,0,1,1,0
0.010078000,0,0,1,0,1,0,1,0,0,1,1,1
0.010578000,0,0,1,0,1,0,1,0,0,1,1,0
0.010995000,0,0,0,0,0,0,0,0,0,0,0,0
0.011000000,0,1,1,0,0,0,0,1,0,1,1,0
0.011078000,0,1,1,0,0,0,0,1,0,1,1,1
0.011578000,0,1,1,0,0,0,0,1,0,1,1,0
0.011995000,0,0,0,0,0,0,0,0,0,0,0,0
0.012000000,1,0,1,0,1,1,0,1,0,1,1,0
0.012078000,1,0,1,0,1,1,0,1,0,1,1,1
0.012578000,1,0,1,0,1,1,0,1,0,1,1,0
0.012995000,0,0,0,0,0,0,0,0,0,0,0,0
0.013000000,1,1,1,1,1,0,1,1,0,1,1,0
0.013078000,1,1,1,1,1,0,1,1,0,1,1,1
0.013578000,1,1,1,1,1,0,1,1,0,1,1,0
0.013995000,0,0,0,0,0,0,0,0,0,0,0,0
0.014000000,1,0,1,1,0,0,0,0,1,1,1,0
0.014078000,1,0,1,1,0,0,0,0,1,1,1,1
0.014578000,1,0,1,1,0,0,0,0,1,1,1,0
0.014995000,0,0,0,0,0,0,0,0,0,0,0,0
0.015000000,1,0,1,0,1,1,0,0,1,1,1,0
0.015078000,1,0,1,0,1,1,0,0,1,1,1,1
0.015578000,1,0,1,0,1,1,0,0,1,1,1,0
0.015995000,0,0,0,0,0,0,0,0,0,0,0,0
0.016000000,1,1,1,0,1,0,1,0,1,1,1,0
0.016078000,1,1,1,0,1,0,1,0,1,1,1,1
0.016578000,1,1,1,0,1,0,1,0,1,1,1,0
0.016995000,0,0,0,0,0,0,0,0,0,0,0,0
0.017000000,1,1,1,0,1,1,1,0,1,1,1,0
0.017078000,1,1,1,0,1,1,1,0,1,1,1,1
0.017578000,1,1,1,0,1,1,1,0,1,1,1,0
0.017995000,0,0,0,0,0,0,0,0,0,0,0,0
0.018000000,0,1,1,0,1,0,0,1,1,1,1,0
0.018078000,0,1,1,0,1,0,0,1,1,1,1,1
0.018578000,0,1,1,0,1,0,0,1,1,1,1,0
0.018995000,0,0,0,0,0,0,0,0,0,0,0,0
0.019000000,1,1,1,1,0,1,0,1,1,1,1,0
0.019078000,1,1,1,1,0,1,0,1,1,1,1,1
0.019578000,1,1,1,1,0,1,0,1,1,1,1,0
0.019995000,0,0,0,0,0,0,0,0,0,0,0,0
0.020000000,0,0,0,1,0,0,1,1,1,1,1,0
0.020078000,0,0,0,1,0,0,1,1,1,1,1,1
0.020578000,0,0,0,1,0,0,1,1,1,1,1,0
0.020995000,0,0,0,0,0,0,0,0,0,0,0,0
0.021000000,1,1,1,0,1,0,1,1,1,1,1,0
0.021078000,1,1,1,0,1,0,1,1,1,1,1,1
0.021578000,1,1,1,0,1,0,1,1,1,1,1,0
0.021995000,0,0,0,0,0,0,0,0,0,0,0,0
0.022000000,0,0,0,1,0,1,1,1,1,1,1,0
0.022078000,0,0,0,1,0,1,1,1,1,1,1,1
0.022578000,0,0,0,1,0,1,1,1,1,1,1,0
0.022995000,0,0,0,0,0,0,0,0,0,0,0,0
0.023000000,1,1,0,0,1,1,1,1,1,1,1,0
0.023078000,1,1,0,0,1,1,1,1,1,1,1,1
0.023578000,1,1,0,0,1,1,1,1,1,1,1,0
0.023995000,0,0,0,0,0,0,0,0,0,0,0,0
0.024000000,0,1,0,1,1,1,1,1,1,1,1,0
0.024078000,0,1,0,1,1,1,1,1,1,1,1,1
0.024578000,0,1,0,1,1,1,1,1,1,1,1,0
0.024995000,0,0,0,0,0,0,0,0,0,0,0,0
0.025000000,1,1,0,1,1,1,1,1,1,1,1,0
0.025078000,1,1,0,1,1,1,1,1,1,1,1,1
0.025578000,1,1,0,1,1,1,1,1,1,1,1,0
0.025995000,0,0,0,0,0,0,0,0,0,0,0,0
0.026000000,1,0,0,1,1,1,1,1,1,1,1,0
0.026078000,1,0,0,1,1,1,1,1,1,1,1,1
0.026578000,1,0,0,1,1,1,1,1,1,1,1,0
0.026995000,0,0,0,0,0,0,0,0,0,0,0,0
0.027000000,1,1,0,0,1,1,1,1,1,1,1,0
0.027078000,1,1,0,0,1,1,1,1,1,1,1,1
0.027578000,1,1,0,0,1,1,1,1,1,1,1,0
0.027995000,0,0,0,0,0,0,0,0,0,0,0,0
0.028000000,0,1,0,1,0,1,1,1,1,1,1,0
0.028078000,0,1,0,1,0,1,1,1,1,1,1,1
0.028578000,0,1,0,1,0,1,1,1,1,1,1,0
0.028995000,0,0,0,0,0,0,0,0,0,0,0,0
0.029000000,1,1,0,1,1,0,1,1,1,1,1,0
0.029078000,1,1,0,1,1,0,1,1,1,1,1,1
0.029578000,1,1,0,1,1,0,1,1,1,1,1,0
0.029995000,0,0,0,0,0,0,0,0,0,0,0,0
0.030000000,0,1,0,1,0,0,1,1,1,1,1,0
0.030078000,0,1,0,1,0,0,1,1,1,1,1,1
0.030578000,0,1,0,1,0,0,1,1,1,1,1,0
0.030995000,0,0,0,0,0,0,0,0,0,0,0,0
0.031000000,0,0,1,0,1,1,0,1,1,1,1,0
0.031078000,0,0,1,0,1,1,0,1,1,1,1,1
0.031578000,0,0,1,0,1,1,0,1,1,1,1,0
0.031995000,0,0,0,0,0,0,0,0,0,0,0,0
0.032000000,0,1,0,1,1,0,0,1,1,1,1,0
0.032078000,0,1,0,1,1,0,0,1,1,1,1,1
0.032578000,0,1,0,1,1,0,0,1,1,1,1,0
0.032995000,0,0,0,0,0,0,0,0,0,0,0,0
0.033000000,1,0,1,1,1,1,1,0,1,1,1,0
0.033078000,1,0,1,1,1,1,1,0,1,1,1,1
0.033578000,1,0,1,1,1,1,1,0,1,1,1,0
0.033995000,0,0,0,0,0,0,0,0,0,0,0,0
0.034000000,1,0,1,1,1,0,1,0,1,1,1,0
0.034078000,1,0,1,1,1,0,1,0,1,1,1,1
0.034578000,1,0,1,1,1,0,1,0,1,1,1,0
0.034995000,0,0,0,0,0,0,0,0,0,0,0,0
0.035000000,0,1,0,1,1,1,0,0,1,1,1,0
0.035078000,0,1,0,1,1,1,0,0,1,1,1,1
0.035578000,0,1,0,1,1,1,0,0,1,1,1,0
0.035995000,0,0,0,0,0,0,0,0,0,0,0,0
0.036000000,1,1,0,0,1,0,0,0,1,1,1,0
0.036078000,1,1,0,0,1,0,0,0,1,1,1,1
0.036578000,1,1,0,0,1,0,0,0,1,1,1,0
0.036995000,0,0,0,0,0,0,0,0,0,0,0,0
0.037000000,1,0,0,1,0,1,1,1,0,1,1,0
0.037078000,1,0,0,1,0,1,1,1,0,1,1,1
0.037578000,1,0,0,1,0,1,1,1,0,1,1,0
0.037995000,0,0,0,0,0,0,0,0,0,0,0,0
0.038000000,1,0,1,1,1,1,0,1,0,1,1,0
0.038078000,1,0,1,1,1,1,0,1,0,1,1,1
0.038578000,1,0,1,1,1,1,0,1,0,1,1,0
0.038995000,0,0,0,0,0,0,0,0,0,0,0,0
0.039000000,1,0,1,1,0,0,0,1,0,1,1,0
0.039078000,1,0,1,1,0,0,0,1,0,1,1,1
0.039578000,1,0,1,1,0,0,0,1,0,1,1,0
0.039995000,0,0,0,0,0,0,0,0,0,0,0,0
0.040000000,1,1,0,1,1,0,1,0,0,1,1,0
0.040078000,1,1,0,1,1,0,1,0,0,1,1,1
0.040578000,1,1,0,1,1,0,1,0,0,1,1,0
0.040995000,0,0,0,0,0,0,0,0,0,0,0,0
0.041000000,0,0,0,1,0,1,0,0,0,1,1,0
0.041078000,0,0,0,1,0,1,0,0,0,1,1,1
0.041578000,0,0,0,1,0,1,0,0,0,1,1,0
0.041995000,0,0,0,0,0,0,0,0,0,0,0,0
0.042000000,0,1,0,0,1,1,1,1,1,0,1,0
0.042078000,0,1,0,0,1,1,1,1,1,0,1,1
0.042578000,0,1,0,0,1,1,1,1,1,0,1,0
0.042995000,0,0,0,0,0,0,0,0,0,0,0,0
0.043000000,0,1,0,1,1,1,0,1,1,0,1,0
0.043078000,0,1,0,1,1,1,0,1,1,0,1,1
0.043578000,0,1,0,1,1,1,0,1,1,0,1,0
0.043995000,0,0,0,0,0,0,0,0,0,0,0,0
0.044000000,1,1,1,1,1,1,1,0,1,0,1,0
0.044078000,1,1,1,1,1,1,1,0,1,0,1,1
0.044578000,1,1,1,1,1,1,1,0,1,0,1,0
0.044995000,0,0,0,0,0,0,0,0,0,0,0,0
0.045000000,0,1,1,0,0,0,1,0,1,0,1,0
0.045078000,0,1,1,0,0,0,1,0,1,0,1,1
0.045578000,0,1,1,0,0,0,1,0,1,0,1,0
0.045995000,0,0,0,0,0,0,0,0,0,0,0,0
0.046000000,1,0,0,1,0,0,0,0,1,0,1,0
0.046078000,1,0,0,1,0,0,0,0,1,0,1,1
0.046578000,1,0,0,1,0,0,0,0,1,0,1,0
0.046995000,0,0,0,0,0,0,0,0,0,0,0,0
0.047000000,0,0,1,1,0,0,1,1,0,0,1,0
0.047078000,0,0,1,1,0,0,1,1,0,0,1,1
0.047578000,0,0,1,1,0,0,1,1,0,0,1,0
0.047995000,0,0,0,0,0,0,0,0,0,0,0,0
0.048000000,1,0,1,1,0,0,0,1,0,0,1,0
0.048078000,1,0,1,1,0,0,0,1,0,0,1,1
0.048578000,1,0,1,1,0,0,0,1,0,0,1,0
0.048995000,0,0,0,0,0,0,0,0,0,0,0,0
0.049000000,0,0,0,0,1,0,1,0,0,0,1,0
0.049078000,0,0,0,0,1,0,1,0,0,0,1,1
0.049578000,0,0,0,0,1,0,1,0,0,0,1,0
0.049995000,0,0,0,0,0,0,0,0,0,0,0,0
0.050000000,0,0,0,0,1,0,0,0,0,0,1,0
0.050078000,0,0,0,0,1,0,0,0,0,0,1,1
0.050578000,0,0,0,0,1,0,0,0,0,0,1,0
0.050995000,0,0,0,0,0,0,0,0,0,0,0,0
0.051000000,0,1,1,1,0,0,1,1,1,1,0,0
0.051078000,0,1,1,1,0,0,1,1,1,1,0,1
0.051578000,0,1,1,1,0,0,1,1,1,1,0,0
0.051995000,0,0,0,0,0,0,0,0,0,0,0,0
0.052000000,0,0,0,0,1,0,0,1,1,1,0,0
0.052078000,0,0,0,0,1,0,0,1,1,1,0,1
0.052578000,0,0,0,0,1,0,0,1,1,1,0,0
0.052995000,0,0,0,0,0,0,0,0,0,0,0,0
0.053000000,0,1,0,0,1,0,1,0,1,1,0,0
0.053078000,0,1,0,0,1,0,1,0,1,1,0,1
0.053578000,0,1,0,0,1,0,1,0,1,1,0,0
0.053995000,0,0,0,0,0,0,0,0,0,0,0,0
0.054000000,1,0,1,0,1,0,0,0,1,1,0,0
0.054078000,1,0,1,0,1,0,0,0,1,1,0,1
0.054578000,1,0,1,0,1,0,0,0,1,1,0,0
0.054995000,0,0,0,0,0,0,0,0,0,0,0,0
0.055000000,1,1,1,0,1,0,1,1,0,1,0,0
0.055078000,1,1,1,0,1,0,1,1,0,1,0,1
0.055578000,1,1,1,0,1,0,1,1,0,1,0,0
0.055995000,0,0,0,0,0,0,0,0,0,0,0,0
0.056000000,0,0,1,1,1,0,0,1,0,1,0,0
0.056078000,0,0,1,1,1,0,0,1,0,1,0,1
0.056578000,0,0,1,1,1,0,0,1,0,1,0,0
0.056995000,0,0,0,0,0,0,0,0,0,0,0,0
0.057000000,0,1,0,0,0,1,1,0,0,1,0,0
0.057078000,0,1,0,0,0,1,1,0,0,1,0,1
0.057578000,0,1,0,0,0,1,1,0,0,1,0,0
0.057995000,0,0,0,0,0,0,0,0,0,0,0,0
0.058000000,0,1,0,1,0,1,0,0,0,1,0,0
0.058078000,0,1,0,1,0,1,0,0,0,1,0,1
0.058578000,0,1,0,1,0,1,0,0,0,1,0,0
0.058995000,0,0,0,0,0,0,0,0,0,0,0,0
0.059000000,1,1,0,0,1,1,1,1,1,0,0,0
0.059078000,1,1,0,0,1,1,1,1,1,0,0,1
0.059578000,1,1,0,0,1,1,1,1,1,0,0,0
0.059995000,0,0,0,0,0,0,0,0,0,0,0,0
0.060000000,1,0,1,1,1,1,0,1,1,0,0,0
0.060078000,1,0,1,1,1,1,0,1,1,0,0,1
0.060578000,1,0,1,1,1,1,0,1,1,0,0,0
0.060995000,0,0,0,0,0,0,0,0,0,0,0,0
0.061000000,1,1,0,1,0,0,0,1,1,0,0,0
0.061078000,1,1,0,1,0,0,0,1,1,0,0,1
0.061578000,1,1,0,1,0,0,0,1,1,0,0,0
0.061995000,0,0,0,0,0,0,0,0,0,0,0,0
0.062000000,1,1,0,1,1,0,1,0,1,0,0,0
0.062078000,1,1,0,1,1,0,1,0,1,0,0,1
0.062578000,1,1,0,1,1,0,1,0,1,0,0,0
0.062995000,0,0,0,0,0,0,0,0,0,0,0,0
0.063000000,1,1,1,1,0,1,0,0,1,0,0,0
0.063078000,1,1,1,1,0,1,0,0,1,0,0,1
0.063578000,1,1,1,1,0,1,0,0,1,0,0,0
0.063995000,0,0,0,0,0,0,0,0,0,0,0,0
0.064000000,0,0,1,0,0,0,0,0,1,0,0,0
0.064078000,0,0,1,0,0,0,0,0,1,0,0,1
0.064578000,0,0,1,0,0,0,0,0,1,0,0,0
0.064995000,0,0,0,0,0,0,0,0,0,0,0,0
0.065000000,0,0,1,1,1,0,1,1,0,0,0,0
0.065078000,0,0,1,1,1,0,1,1,0,0,0,1
0.065578000,0,0,1,1,1,0,1,1,0,0,0,0
0.065995000,0,0,0,0,0,0,0,0,0,0,0,0
0.066000000,1,1,1,0,1,1,0,1,0,0,0,0
0.066078000,1,1,1,0,1,1,0,1,0,0,0,1
0.066578000,1,1,1,0,1,1,0,1,0,0,0,0
0.066995000,0,0,0,0,0,0,0,0,0,0,0,0
0.067000000,0,1,1,0,1,0,0,1,0,0,0,0
0.067078000,0,1,1,0,1,0,0,1,0,0,0,1
0.067578000,0,1,1,0,1,0,0,1,0,0,0,0
0.067995000,0,0,0,0,0,0,0,0,0,0,0,0
0.068000000,1,1,1,0,1,1,1,0,0,0,0,0
0.068078000,1,1,1,0,1,1,1,0,0,0,0,1
0.068578000,1,1,1,0,1,1,1,0,0,0,0,0
0.068995000,0,0,0,0,0,0,0,0,0,0,0,0
0.069000000,1,0,1,1,1,0,1,0,0,0,0,0
0.069078000,1,0,1,1,1,0,1,0,0,0,0,1
0.069578000,1,0,1,1,1,0,1,0,0,0,0,0
0.069995000,0,0,0,0,0,0,0,0,0,0,0,0
0.070000000,1,0,1,0,0,0,1,0,0,0,0,0
0.070078000,1,0,1,0,0,0,1,0,0,0,0,1
0.070578000,1,0,1,0,0,0,1,0,0,0,0,0
0.070995000,0,0,0,0,0,0,0,0,0,0,0,0
0.071000000,0,1,0,0,1,1,0,0,0,0,0,0
0.071078000,0,1,0,0,1,1,0,0,0,0,0,1
0.071578000,0,1,0,0,1,1,0,0,0,0,0,0
0.071995000,0,0,0,0,0,0,0,0,0,0,0,0
0.072000000,0,0,1,0,0,1,0,0,0,0,0,0
0.072078000,0,0,1,0,0,1,0,0,0,0,0,1
0.072578000,0,0,1,0,0,1,0,0,0,0,0,0
0.072995000,0,0,0,0,0,0,0,0,0,0,0,0
0.073000000,1,1,1,0,1,0,0,0,0,0,0,0
0.073078000,1,1,1,0,1,0,0,0,0,0,0,1
0.073578000,1,1,1,0,1,0,0,0,0,0,0,0
0.073995000,0,0,0,0,0,0,0,0,0,0,0,0
0.074000000,1,0,0,0,1,0,0,0,0,0,0,0
0.074078000,1,0,0,0,1,0,0,0,0,0,0,1
0.074578000,1,0,0,0,1,0,0,0,0,0,0,0
0.074995000,0,0,0,0,0,0,0,0,0,0,0,0
0.075000000,1,0,1,1,0,0,0,0,0,0,0,0
0.075078000,1,0,1,1,0,0,0,0,0,0,0,1
0.075578000,1,0,1,1,0,0,0,0,0,0,0,0
0.075995000,0,0,0,0,0,0,0,0,0,0,0,0
0.076000000,0,1,1,1,0,0,0,0,0,0,0,0
0.076078000,0,1,1,1,0,0,0,0,0,0,0,1
0.076578000,0,1,1,1,0,0,0,0,0,0,0,0
0.076995000,0,0,0,0,0,0,0,0,0,0,0,0
0.077000000,0,0,1,0,1,0,0,0,0,0,0,0
0.077078000,0,0,1,0,1,0,0,0,0,0,0,1
0.077578000,0,0,1,0,1,0,0,0,0,0,0,0
0.077995000,0,0,0,0,0,0,0,0,0,0,0,0
0.078000000,0,0,1,1,1,0,0,0,0,0,0,0
0.078078000,0,0,1,1,1,0,0,0,0,0,0,1
0.078578000,0,0,1,1,1,0,0,0,0,0,0,0
0.078995000,0,0,0,0,0,0,0,0,0,0,0,0
0.079000000,1,0,0,1,0,1,0,0,0,0,0,0
0.079078000,1,0,0,1,0,1,0,0,0,0,0,1
0.079578000,1,0,0,1,0,1,0,0,0,0,0,0
0.079995000,0,0,0,0,0,0,0,0,0,0,0,0
0.080000000,0,1,0,1,1,1,0,0,0,0,0,0
0.080078000,0,1,0,1,1,1,0,0,0,0,0,1
0.080578000,0,1,0,1,1,1,0,0,0,0,0,0
0.080995000,0,0,0,0,0,0,0,0,0,0,0,0
0.081000000,0,0,0,0,1,0,1,0,0,0,0,0
0.081078000,0,0,0,0,1,0,1,0,0,0,0,1
0.081578000,0,0,0,0,1,0,1,0,0,0,0,0
0.081995000,0,0,0,0,0,0,0,0,0,0,0,0
0.082000000,0,0,0,1,0,1,1,0,0,0,0,0
0.082078000,0,0,0,1,0,1,1,0,0,0,0,1
0.082578000,0,0,0,1,0,1,1,0,0,0,0,0
0.082995000,0,0,0,0,0,0,0,0,0,0,0,0
0.083000000,1,0,1,0,0,0,0,1,0,0,0,0
0.083078000,1,0,1,0,0,0,0,1,0,0,0,1
0.083578000,1,0,1,0,0,0,0,1,0,0,0,0
0.083995000,0,0,0,0,0,0,0,0,0,0,0,0
0.084000000,0,0,1,0,0,1,0,1,0,0,0,0
0.084078000,0,0,1,0,0,1,0,1,0,0,0,1
0.084578000,0,0,1,0,0,1,0,1,0,0,0,0
0.084995000,0,0,0,0,0,0,0,0,0,0,0,0
0.085000000,0,0,0,1,0,0,1,1,0,0,0,0
0.085078000,0,0,0,1,0,0,1,1,0,0,0,1
0.085578000,0,0,0,1,0,0,1,1,0,0,0,0
0.085995000,0,0,0,0,0,0,0,0,0,0,0,0
0.086000000,1,0,1,1,0,1,1,1,0,0,0,0
0.086078000,1,0,1,1,0,1,1,1,0,0,0,1
0.086578000,1,0,1,1,0,1,1,1,0,0,0,0
0.086995000,0,0,0,0,0,0,0,0,0,0,0,0
0.086999000,0,0,0,0,0,0,0,0,1,0,0,0
0.087000000,1,1,1,0,1,0,0,0,1,0,0,0
0.087078000,1,1,1,0,1,0,0,0,1,0,0,1
0.087578000,1,1,1,0,1,0,0,0,1,0,0,0
0.087995000,0,0,0,0,0,0,0,0,0,0,0,0
0.087999000,0,0,0,0,0,0,1,0,1,0,0,0
0.088000000,1,1,0,0,0,0,1,0,1,0,0,0
0.088078000,1,1,0,0,0,0,1,0,1,0,0,1
0.088578000,1,1,0,0,0,0,1,0,1,0,0,0
0.088995000,0,0,0,0,0,0,0,0,0,0,0,0
0.088999000,0,0,0,0,1,1,1,0,1,0,0,0
0.089000000,1,0,0,0,1,1,1,0,1,0,0,0
0.089078000,1,0,0,0,1,1,1,0,1,0,0,1
0.089578000,1,0,0,0,1,1,1,0,1,0,0,0
0.089995000,0,0,0,0,0,0,0,0,0,0,0,0
0.089999000,0,1,0,0,0,1,0,1,1,0,0,0
0.090000000,1,1,0,0,0,1,0,1,1,0,0,0
0.090078000,1,1,0,0,0,1,0,1,1,0,0,1
0.090578000,1,1,0,0,0,1,0,1,1,0,0,0
0.090995000,0,0,0,0,0,0,0,0,0,0,0,0
0.090999000,0,1,1,0,1,0,1,1,1,0,0,0
0.091078000,0,1,1,0,1,0,1,1,1,0,0,1
0.091578000,0,1,1,0,1,0,1,1,1,0,0,0
0.091995000,0,0,0,0,0,0,0,0,0,0,0,0
0.091999000,0,0,1,1,0,0,0,0,0,1,0,0
0.092078000,0,0,1,1,0,0,0,0,0,1,0,1
0.092578000,0,0,1,1,0,0,0,0,0,1,0,0
0.092995000,0,0,0,0,0,0,0,0,0,0,0,0
0.092999000,0,0,1,0,0,0,1,0,0,1,0,0
0.093078000,0,0,1,0,0,0,1,0,0,1,0,1
0.093578000,0,0,1,0,0,0,1,0,0,1,0,0
0.093995000,0,0,0,0,0,0,0,0,0,0,0,0
0.093999000,1,0,1,1,1,1,1,0,0,1,0,0
0.094078000,1,0,1,1,1,1,1,0,0,1,0,1
0.094578000,1,0,1,1,1,1,1,0,0,1,0,0
0.094995000,0,0,0,0,0,0,0,0,0,0,0,0
0.094999000,1,1,1,0,1,1,0,1,0,1,0,0
0.095078000,1,1,1,0,1,1,0,1,0,1,0,1
0.095578000,1,1,1,0,1,1,0,1,0,1,0,0
0.095995000,0,0,0,0,0,0,0,0,0,0,0,0
