Time [s],Channel 0,Channel 1,Channel 2,Channel 3,Channel 4,Channel 5,Channel 6,Channel 7,Channel 8,Channel 9,Channel 10,Channel 11
-0.000391000,1,0,1,0,0,0,1,0,1,0,1,0
-0.000004000,0,0,0,0,0,0,0,0,0,0,0,0
0.000000000,1,0,1,0,0,1,0,0,1,0,1,0
0.000079000,1,0,1,0,0,1,0,0,1,0,1,1
0.000579000,1,0,1,0,0,1,0,0,1,0,1,0
0.000995000,1,0,1,0,0,1,0,0,1,0,0,0
0.000996000,0,0,0,0,0,0,0,0,0,0,0,0
0.001000000,1,0,0,1,0,0,0,0,1,0,1,0
0.001079000,1,0,0,1,0,0,0,0,1,0,1,1
0.001579000,1,0,0,1,0,0,0,0,1,0,1,0
0.001995000,1,0,0,1,0,0,0,0,1,0,0,0
0.001996000,0,0,0,0,0,0,0,0,0,0,0,0
0.002000000,1,1,1,1,0,1,1,1,0,0,1,0
0.002079000,1,1,1,1,0,1,1,1,0,0,1,1
0.002579000,1,1,1,1,0,1,1,1,0,0,1,0
0.002995000,1,1,1,1,0,1,1,1,0,0,0,0
0.002996000,0,0,0,0,0,0,0,0,0,0,0,0
0.003000000,1,1,0,0,1,0,1,1,0,0,1,0
0.003079000,1,1,0,0,1,0,1,1,0,0,1,1
0.003579000,1,1,0,0,1,0,1,1,0,0,1,0
0.003995000,1,1,0,0,1,0,1,1,0,0,0,0
0.003996000,0,0,0,0,0,0,0,0,0,0,0,0
0.004000000,0,1,0,1,1,1,0,1,0,0,1,0
0.004079000,0,1,0,1,1,1,0,1,0,0,1,1
0.004579000,0,1,0,1,1,1,0,1,0,0,1,0
0.004995000,0,0,0,1,0,0,0,0,0,0,1,0
0.004996000,0,0,0,0,0,0,0,0,0,0,0,0
0.005000000,0,1,0,0,0,1,0,1,0,0,1,0
0.005079000,0,1,0,0,0,1,0,1,0,0,1,1
0.005579000,0,1,0,0,0,1,0,1,0,0,1,0
0.005995000,0,0,0,0,0,0,0,0,0,0,0,0
0.006000000,0,1,1,1,0,0,0,1,0,0,1,0
0.006079000,0,1,1,1,0,0,0,1,0,0,1,1
0.006579000,0,1,1,1,0,0,0,1,0,0,1,0
0.006995000,0,0,0,0,0,0,0,0,0,0,0,0
0.007000000,1,0,1,1,1,1,1,0,0,0,1,0
0.007079000,1,0,1,1,1,1,1,0,0,0,1,1
0.007579000,1,0,1,1,1,1,1,0,0,0,1,0
0.007995000,0,0,0,0,0,0,0,0,0,0,0,0
0.008000000,0,1,1,0,0,1,1,0,0,0,1,0
0.008079000,0,1,1,0,0,1,1,0,0,0,1,1
0.008579000,0,1,1,0,0,1,1,0,0,0,1,0
0.008995000,0,0,0,0,0,0,0,0,0,0,0,0
0.009000000,0,0,0,0,1,0,1,0,0,0,1,0
0.009079000,0,0,0,0,1,0,1,0,0,0,1,1
0.009579000,0,0,0,0,1,0,1,0,0,0,1,0
0.009995000,0,0,0,0,0,0,0,0,0,0,0,0
0.010000000,0,0,0,1,0,0,1,0,0,0,1,0
0.010079000,0,0,0,1,0,0,1,0,0,0,1,1
0.010579000,0,0,0,1,0,0,1,0,0,0,1,0
0.010995000,0,0,0,0,0,0,0,0,0,0,0,0
0.011000000,1,1,1,0,1,1,0,0,0,0,1,0
0.011079000,1,1,1,0,1,1,0,0,0,0,1,1
0.011579000,1,1,1,0,1,1,0,0,0,0,1,0
0.011995000,0,0,0,0,0,0,0,0,0,0,0,0
0.012000000,1,1,0,1,0,1,0,0,0,0,1,0
0.012079000,1,1,0,1,0,1,0,0,0,0,1,1
0.012579000,1,1,0,1,0,1,0,0,0,0,1,0
0.012995000,0,0,0,0,0,0,0,0,0,0,0,0
0.013000000,0,1,1,1,1,0,0,0,0,0,1,0
0.013079000,0,1,1,1,1,0,0,0,0,0,1,1
0.013579000,0,1,1,1,1,0,0,0,0,0,1,0
0.013995000,0,0,0,0,0,0,0,0,0,0,0,0
0.014000000,1,1,1,0,1,0,0,0,0,0,1,0
0.014079000,1,1,1,0,1,0,0,0,0,0,1,1
0.014579000,1,1,1,0,1,0,0,0,0,0,1,0
0.014995000,0,0,0,0,0,0,0,0,0,0,0,0
0.015000000,1,0,1,1,0,0,0,0,0,0,1,0
0.015079000,1,0,1,1,0,0,0,0,0,0,1,1
0.015579000,1,0,1,1,0,0,0,0,0,0,1,0
0.015995000,0,0,0,0,0,0,0,0,0,0,0,0
0.016000000,0,1,1,1,0,0,0,0,0,0,1,0
0.016079000,0,1,1,1,0,0,0,0,0,0,1,1
0.016579000,0,1,1,1,0,0,0,0,0,0,1,0
0.016995000,0,0,0,0,0,0,0,0,0,0,0,0
0.017000000,1,1,0,1,0,0,0,0,0,0,1,0
0.017079000,1,1,0,1,0,0,0,0,0,0,1,1
0.017579000,1,1,0,1,0,0,0,0,0,0,1,0
0.017995000,0,0,0,0,0,0,0,0,0,0,0,0
0.018000000,1,1,0,1,0,0,0,0,0,0,1,0
0.018079000,1,1,0,1,0,0,0,0,0,0,1,1
0.018579000,1,1,0,1,0,0,0,0,0,0,1,0
0.018995000,0,0,0,0,0,0,0,0,0,0,0,0
0.019000000,0,1,1,0,0,0,0,0,0,0,1,0
0.019079000,0,1,1,0,0,0,0,0,0,0,1,1
0.019579000,0,1,1,0,0,0,0,0,0,0,1,0
0.019995000,0,0,0,0,0,0,0,0,0,0,0,0
0.020000000,1,1,0,1,0,0,0,0,0,0,1,0
0.020079000,1,1,0,1,0,0,0,0,0,0,1,1
0.020579000,1,1,0,1,0,0,0,0,0,0,1,0
0.020995000,0,0,0,0,0,0,0,0,0,0,0,0
0.021000000,0,1,0,0,1,0,0,0,0,0,1,0
0.021079000,0,1,0,0,1,0,0,0,0,0,1,1
0.021579000,0,1,0,0,1,0,0,0,0,0,1,0
0.021995000,0,0,0,0,0,0,0,0,0,0,0,0
0.022000000,0,1,1,0,1,0,0,0,0,0,1,0
0.022079000,0,1,1,0,1,0,0,0,0,0,1,1
0.022579000,0,1,1,0,1,0,0,0,0,0,1,0
0.022995000,0,0,0,0,0,0,0,0,0,0,0,0
0.023000000,0,1,0,0,0,1,0,0,0,0,1,0
0.023079000,0,1,0,0,0,1,0,0,0,0,1,1
0.023579000,0,1,0,0,0,1,0,0,0,0,1,0
0.023995000,0,0,0,0,0,0,0,0,0,0,0,0
0.024000000,1,1,0,1,0,1,0,0,0,0,1,0
0.024079000,1,1,0,1,0,1,0,0,0,0,1,1
0.024579000,1,1,0,1,0,1,0,0,0,0,1,0
0.024995000,0,0,0,0,0,0,0,0,0,0,0,0
0.025000000,1,1,1,0,1,1,0,0,0,0,1,0
0.025079000,1,1,1,0,1,1,0,0,0,0,1,1
0.025579000,1,1,1,0,1,1,0,0,0,0,1,0
0.025995000,0,0,0,0,0,0,0,0,0,0,0,0
0.026000000,0,0,0,0,0,0,1,0,0,0,1,0
0.026079000,0,0,0,0,0,0,1,0,0,0,1,1
0.026579000,0,0,0,0,0,0,1,0,0,0,1,0
0.026995000,0,0,0,0,0,0,0,0,0,0,0,0
0.027000000,1,1,1,0,1,0,1,0,0,0,1,0
0.027079000,1,1,1,0,1,0,1,0,0,0,1,1
0.027579000,1,1,1,0,1,0,1,0,0,0,1,0
0.027995000,0,0,0,0,0,0,0,0,0,0,0,0
0.028000000,0,0,0,1,0,1,1,0,0,0,1,0
0.028079000,0,0,0,1,0,1,1,0,0,0,1,1
0.028579000,0,0,0,1,0,1,1,0,0,0,1,0
0.028995000,0,0,0,0,0,0,0,0,0,0,0,0
0.029000000,0,1,0,1,1,1,1,0,0,0,1,0
0.029079000,0,1,0,1,1,1,1,0,0,0,1,1
0.029579000,0,1,0,1,1,1,1,0,0,0,1,0
0.029995000,0,0,0,0,0,0,0,0,0,0,0,0
0.030000000,0,0,0,0,1,0,0,1,0,0,1,0
0.030079000,0,0,0,0,1,0,0,1,0,0,1,1
0.030579000,0,0,0,0,1,0,0,1,0,0,1,0
0.030995000,0,0,0,0,0,0,0,0,0,0,0,0
0.031000000,1,0,1,0,0,1,0,1,0,0,1,0
0.031079000,1,0,1,0,0,1,0,1,0,0,1,1
0.031579000,1,0,1,0,0,1,0,1,0,0,1,0
0.031995000,0,0,0,0,0,0,0,0,0,0,0,0
0.032000000,1,0,1,1,1,1,0,1,0,0,1,0
0.032079000,1,0,1,1,1,1,0,1,0,0,1,1
0.032579000,1,0,1,1,1,1,0,1,0,0,1,0
0.032995000,0,0,0,0,0,0,0,0,0,0,0,0
0.033000000,0,1,1,0,1,0,1,1,0,0,1,0
0.033079000,0,1,1,0,1,0,1,1,0,0,1,1
0.033579000,0,1,1,0,1,0,1,1,0,0,1,0
0.033995000,0,0,0,0,0,0,0,0,0,0,0,0
0.034000000,0,0,0,1,1,1,1,1,0,0,1,0
0.034079000,0,0,0,1,1,1,1,1,0,0,1,1
0.034579000,0,0,0,1,1,1,1,1,0,0,1,0
0.034995000,0,0,0,0,0,0,0,0,0,0,0,0
0.035000000,1,1,1,1,0,0,0,0,1,0,1,0
0.035079000,1,1,1,1,0,0,0,0,1,0,1,1
0.035579000,1,1,1,1,0,0,0,0,1,0,1,0
0.035995000,0,0,0,0,0,0,0,0,0,0,0,0
0.036000000,1,0,0,1,0,1,0,0,1,0,1,0
0.036079000,1,0,0,1,0,1,0,0,1,0,1,1
0.036579000,1,0,0,1,0,1,0,0,1,0,1,0
0.036995000,0,0,0,0,0,0,0,0,0,0,0,0
0.037000000,0,0,1,0,0,0,1,0,1,0,1,0
0.037079000,0,0,1,0,0,0,1,0,1,0,1,1
0.037579000,0,0,1,0,0,0,1,0,1,0,1,0
0.037995000,0,0,0,0,0,0,0,0,0,0,0,0
0.038000000,1,0,0,1,0,1,1,0,1,0,1,0
0.038079000,1,0,0,1,0,1,1,0,1,0,1,1
0.038579000,1,0,0,1,0,1,1,0,1,0,1,0
0.038995000,0,0,0,0,0,0,0,0,0,0,0,0
0.039000000,1,1,1,1,1,1,1,0,1,0,1,0
0.039079000,1,1,1,1,1,1,1,0,1,0,1,1
0.039579000,1,1,1,1,1,1,1,0,1,0,1,0
0.039995000,0,0,0,0,0,0,0,0,0,0,0,0
0.040000000,0,1,1,1,1,0,0,1,1,0,1,0
0.040079000,0,1,1,1,1,0,0,1,1,0,1,1
0.040579000,0,1,1,1,1,0,0,1,1,0,1,0
0.040995000,0,0,0,0,0,0,0,0,0,0,0,0
0.041000000,1,0,0,0,0,0,1,1,1,0,1,0
0.041079000,1,0,0,0,0,0,1,1,1,0,1,1
0.041579000,1,0,0,0,0,0,1,1,1,0,1,0
0.041995000,0,0,0,0,0,0,0,0,0,0,0,0
0.042000000,1,1,1,1,1,0,1,1,1,0,1,0
0.042079000,1,1,1,1,1,0,1,1,1,0,1,1
0.042579000,1,1,1,1,1,0,1,1,1,0,1,0
0.042995000,0,0,0,0,0,0,0,0,0,0,0,0
0.043000000,1,0,1,1,1,1,1,1,1,0,1,0
0.043079000,1,0,1,1,1,1,1,1,1,0,1,1
0.043579000,1,0,1,1,1,1,1,1,1,0,1,0
0.043995000,0,0,0,0,0,0,0,0,0,0,0,0
0.044000000,0,0,0,0,0,1,0,0,0,1,1,0
0.044079000,0,0,0,0,0,1,0,0,0,1,1,1
0.044579000,0,0,0,0,0,1,0,0,0,1,1,0
0.044995000,0,0,0,0,0,0,0,0,0,0,0,0
0.045000000,1,1,0,0,0,0,1,0,0,1,1,0
0.045078000,1,1,0,0,0,0,1,0,0,1,1,1
0.045578000,1,1,0,0,0,0,1,0,0,1,1,0
0.045995000,0,0,0,0,0,0,0,0,0,0,0,0
0.046000000,0,1,0,1,1,0,1,0,0,1,1,0
0.046078000,0,1,0,1,1,0,1,0,0,1,1,1
0.046578000,0,1,0,1,1,0,1,0,0,1,1,0
0.046995000,0,0,0,0,0,0,0,0,0,0,0,0
0.047000000,0,0,1,1,1,1,1,0,0,1,1,0
0.047078000,0,0,1,1,1,1,1,0,0,1,1,1
0.047578000,0,0,1,1,1,1,1,0,0,1,1,0
0.047995000,0,0,0,0,0,0,0,0,0,0,0,0
0.048000000,1,1,0,1,1,0,0,1,0,1,1,0
0.048078000,1,1,0,1,1,0,0,1,0,1,1,1
0.048578000,1,1,0,1,1,0,0,1,0,1,1,0
0.048995000,0,0,0,0,0,0,0,0,0,0,0,0
0.049000000,0,1,0,1,1,1,0,1,0,1,1,0
0.049078000,0,1,0,1,1,1,0,1,0,1,1,1
0.049578000,0,1,0,1,1,1,0,1,0,1,1,0
0.049995000,0,0,0,0,0,0,0,0,0,0,0,0
0.050000000,0,0,1,0,1,0,1,1,0,1,1,0
0.050078000,0,0,1,0,1,0,1,1,0,1,1,1
0.050578000,0,0,1,0,1,0,1,1,0,1,1,0
0.050995000,0,0,0,0,0,0,0,0,0,0,0,0
0.051000000,0,0,0,0,1,1,1,1,0,1,1,0
0.051078000,0,0,0,0,1,1,1,1,0,1,1,1
0.051578000,0,0,0,0,1,1,1,1,0,1,1,0
0.051995000,0,0,0,0,0,0,0,0,0,0,0,0
0.052000000,0,1,1,1,0,0,0,0,1,1,1,0
0.052078000,0,1,1,1,0,0,0,0,1,1,1,1
0.052578000,0,1,1,1,0,0,0,0,1,1,1,0
0.052995000,0,0,0,0,0,0,0,0,0,0,0,0
0.053000000,1,0,1,1,0,1,0,0,1,1,1,0
0.053078000,1,0,1,1,0,1,0,0,1,1,1,1
0.053578000,1,0,1,1,0,1,0,0,1,1,1,0
0.053995000,0,0,0,0,0,0,0,0,0,0,0,0
0.054000000,0,0,0,0,0,0,1,0,1,1,1,0
0.054078000,0,0,0,0,0,0,1,0,1,1,1,1
0.054578000,0,0,0,0,0,0,1,0,1,1,1,0
0.054995000,0,0,0,0,0,0,0,0,0,0,0,0
0.055000000,0,1,0,1,1,0,1,0,1,1,1,0
0.055078000,0,1,0,1,1,0,1,0,1,1,1,1
0.055578000,0,1,0,1,1,0,1,0,1,1,1,0
0.055995000,0,0,0,0,0,0,0,0,0,0,0,0
0.056000000,1,0,0,0,1,1,1,0,1,1,1,0
0.056078000,1,0,0,0,1,1,1,0,1,1,1,1
0.056578000,1,0,0,0,1,1,1,0,1,1,1,0
0.056995000,0,0,0,0,0,0,0,0,0,0,0,0
0.057000000,0,1,1,0,0,0,0,1,1,1,1,0
0.057078000,0,1,1,0,0,0,0,1,1,1,1,1
0.057578000,0,1,1,0,0,0,0,1,1,1,1,0
0.057995000,0,0,0,0,0,0,0,0,0,0,0,0
0.058000000,1,1,0,1,1,0,0,1,1,1,1,0
0.058078000,1,1,0,1,1,0,0,1,1,1,1,1
0.058578000,1,1,0,1,1,0,0,1,1,1,1,0
0.058995000,0,0,0,0,0,0,0,0,0,0,0,0
0.059000000,1,1,0,1,0,1,0,1,1,1,1,0
0.059078000,1,1,0,1,0,1,0,1,1,1,1,1
0.059578000,1,1,0,1,0,1,0,1,1,1,1,0
0.059995000,0,0,0,0,0,0,0,0,0,0,0,0
0.060000000,1,0,0,1,1,1,0,1,1,1,1,0
0.060078000,1,0,0,1,1,1,0,1,1,1,1,1
0.060578000,1,0,0,1,1,1,0,1,1,1,1,0
0.060995000,0,0,0,0,0,0,0,0,0,0,0,0
0.061000000,1,1,1,0,0,0,1,1,1,1,1,0
0.061078000,1,1,1,0,0,0,1,1,1,1,1,1
0.061578000,1,1,1,0,0,0,1,1,1,1,1,0
0.061995000,0,0,0,0,0,0,0,0,0,0,0,0
0.062000000,1,1,1,0,1,0,1,1,1,1,1,0
0.062078000,1,1,1,0,1,0,1,1,1,1,1,1
0.062578000,1,1,1,0,1,0,1,1,1,1,1,0
0.062995000,0,0,0,0,0,0,0,0,0,0,0,0
0.063000000,1,1,1,1,1,0,1,1,1,1,1,0
0.063078000,1,1,1,1,1,0,1,1,1,1,1,1
0.063578000,1,1,1,1,1,0,1,1,1,1,1,0
0.063995000,0,0,0,0,0,0,0,0,0,0,0,0
0.064000000,1,1,0,0,0,1,1,1,1,1,1,0
0.064078000,1,1,0,0,0,1,1,1,1,1,1,1
0.064578000,1,1,0,0,0,1,1,1,1,1,1,0
0.064995000,0,0,0,0,0,0,0,0,0,0,0,0
0.065000000,1,1,1,1,0,1,1,1,1,1,1,0
0.065078000,1,1,1,1,0,1,1,1,1,1,1,1
0.065578000,1,1,1,1,0,1,1,1,1,1,1,0
0.065995000,0,0,0,0,0,0,0,0,0,0,0,0
0.066000000,1,1,1,0,1,1,1,1,1,1,1,0
0.066078000,1,1,1,0,1,1,1,1,1,1,1,1
0.066578000,1,1,1,0,1,1,1,1,1,1,1,0
0.066995000,0,0,0,0,0,0,0,0,0,0,0,0
0.067000000,1,0,1,0,1,1,1,1,1,1,1,0
0.067078000,1,0,1,0,1,1,1,1,1,1,1,1
0.067578000,1,0,1,0,1,1,1,1,1,1,1,0
0.067995000,0,0,0,0,0,0,0,0,0,0,0,0
0.068000000,1,0,0,1,1,1,1,1,1,1,1,0
0.068078000,1,0,0,1,1,1,1,1,1,1,1,1
0.068578000,1,0,0,1,1,1,1,1,1,1,1,0
0.068995000,0,0,0,0,0,0,0,0,0,0,0,0
0.069000000,0,1,0,0,1,1,1,1,1,1,1,0
0.069078000,0,1,0,0,1,1,1,1,1,1,1,1
0.069578000,0,1,0,0,1,1,1,1,1,1,1,0
0.069995000,0,0,0,0,0,0,0,0,0,0,0,0
0.070000000,1,1,0,0,1,1,1,1,1,1,1,0
0.070078000,1,1,0,0,1,1,1,1,1,1,1,1
0.070578000,1,1,0,0,1,1,1,1,1,1,1,0
0.070995000,0,0,0,0,0,0,0,0,0,0,0,0
0.071000000,0,0,0,0,1,1,1,1,1,1,1,0
0.071078000,0,0,0,0,1,1,1,1,1,1,1,1
0.071578000,0,0,0,0,1,1,1,1,1,1,1,0
0.071995000,0,0,0,0,0,0,0,0,0,0,0,0
0.072000000,1,1,1,0,0,1,1,1,1,1,1,0
0.072078000,1,1,1,0,0,1,1,1,1,1,1,1
0.072578000,1,1,1,0,0,1,1,1,1,1,1,0
0.072995000,0,0,0,0,0,0,0,0,0,0,0,0
0.073000000,0,1,1,1,1,0,1,1,1,1,1,0
0.073078000,0,1,1,1,1,0,1,1,1,1,1,1
0.073578000,0,1,1,1,1,0,1,1,1,1,1,0
0.073995000,0,0,0,0,0,0,0,0,0,0,0,0
0.074000000,0,0,1,0,1,0,1,1,1,1,1,0
0.074078000,0,0,1,0,1,0,1,1,1,1,1,1
0.074578000,0,0,1,0,1,0,1,1,1,1,1,0
0.074995000,0,0,0,0,0,0,0,0,0,0,0,0
0.075000000,0,1,1,1,0,0,1,1,1,1,1,0
0.075078000,0,1,1,1,0,0,1,1,1,1,1,1
0.075578000,0,1,1,1,0,0,1,1,1,1,1,0
0.075995000,0,0,0,0,0,0,0,0,0,0,0,0
0.076000000,0,1,0,1,1,1,0,1,1,1,1,0
0.076078000,0,1,0,1,1,1,0,1,1,1,1,1
0.076578000,0,1,0,1,1,1,0,1,1,1,1,0
0.076995000,0,0,0,0,0,0,0,0,0,0,0,0
0.077000000,1,1,1,1,0,1,0,1,1,1,1,0
0.077078000,1,1,1,1,0,1,0,1,1,1,1,1
0.077578000,1,1,1,1,0,1,0,1,1,1,1,0
0.077995000,0,0,0,0,0,0,0,0,0,0,0,0
0.078000000,1,0,1,0,1,0,0,1,1,1,1,0
0.078078000,1,0,1,0,1,0,0,1,1,1,1,1
0.078578000,1,0,1,0,1,0,0,1,1,1,1,0
0.078995000,0,0,0,0,0,0,0,0,0,0,0,0
0.079000000,1,0,1,0,0,0,0,1,1,1,1,0
0.079078000,1,0,1,0,0,0,0,1,1,1,1,1
0.079578000,1,0,1,0,0,0,0,1,1,1,1,0
0.079995000,0,0,0,0,0,0,0,0,0,0,0,0
0.080000000,0,0,1,1,0,1,1,0,1,1,1,0
0.080078000,0,0,1,1,0,1,1,0,1,1,1,1
0.080578000,0,0,1,1,0,1,1,0,1,1,1,0
0.080995000,0,0,0,0,0,0,0,0,0,0,0,0
0.081000000,0,0,1,0,1,0,1,0,1,1,1,0
0.081078000,0,0,1,0,1,0,1,0,1,1,1,1
0.081578000,0,0,1,0,1,0,1,0,1,1,1,0
0.081995000,0,0,0,0,0,0,0,0,0,0,0,0
0.082000000,0,0,1,0,0,0,1,0,1,1,1,0
0.082078000,0,0,1,0,0,0,1,0,1,1,1,1
0.082578000,0,0,1,0,0,0,1,0,1,1,1,0
0.082995000,0,0,0,0,0,0,0,0,0,0,0,0
0.083000000,1,1,0,1,0,1,0,0,1,1,1,0
0.083078000,1,1,0,1,0,1,0,0,1,1,1,1
0.083578000,1,1,0,1,0,1,0,0,1,1,1,0
0.083995000,0,0,0,0,0,0,0,0,0,0,0,0
0.084000000,1,0,0,0,1,0,0,0,1,1,1,0
0.084078000,1,0,0,0,1,0,0,0,1,1,1,1
0.084578000,1,0,0,0,1,0,0,0,1,1,1,0
0.084995000,0,0,0,0,0,0,0,0,0,0,0,0
0.085000000,0,1,1,0,1,1,1,1,0,1,1,0
0.085078000,0,1,1,0,1,1,1,1,0,1,1,1
0.085578000,0,1,1,0,1,1,1,1,0,1,1,0
0.085995000,0,0,0,0,0,0,0,0,0,0,0,0
0.086000000,1,1,0,0,1,0,1,1,0,1,1,0
0.086078000,1,1,0,0,1,0,1,1,0,1,1,1
0.086578000,1,1,0,0,1,0,1,1,0,1,1,0
0.086995000,0,0,0,0,0,0,0,0,0,0,0,0
0.087000000,1,1,1,0,1,1,0,1,0,1,1,0
0.087078000,1,1,1,0,1,1,0,1,0,1,1,1
0.087578000,1,1,1,0,1,1,0,1,0,1,1,0
0.087995000,0,0,0,0,0,0,0,0,0,0,0,0
0.088000000,1,0,0,0,0,1,0,1,0,1,1,0
0.088078000,1,0,0,0,0,1,0,1,0,1,1,1
0.088578000,1,0,0,0,0,1,0,1,0,1,1,0
0.088995000,0,0,0,0,0,0,0,0,0,0,0,0
0.089000000,0,1,0,1,1,1,1,0,0,1,1,0
0.089078000,0,1,0,1,1,1,1,0,0,1,1,1
0.089578000,0,1,0,1,1,1,1,0,0,1,1,0
0.089995000,0,0,0,0,0,0,0,0,0,0,0,0
0.090000000,0,0,1,1,1,0,1,0,0,1,1,0
0.090078000,0,0,1,1,1,0,1,0,0,1,1,1
0.090578000,0,0,1,1,1,0,1,0,0,1,1,0
0.090995000,0,0,0,0,0,0,0,0,0,0,0,0
0.091000000,0,1,0,0,0,0,1,0,0,1,1,0
0.091078000,0,1,0,0,0,0,1,0,0,1,1,1
0.091578000,0,1,0,0,0,0,1,0,0,1,1,0
0.091995000,0,0,0,0,0,0,0,0,0,0,0,0
0.092000000,0,0,0,0,0,1,0,0,0,1,1,0
0.092078000,0,0,0,0,0,1,0,0,0,1,1,1
0.092578000,0,0,0,0,0,1,0,0,0,1,1,0
0.092995000,0,0,0,0,0,0,0,0,0,0,0,0
0.093000000,0,1,1,1,1,1,1,1,1,0,1,0
0.093078000,0,1,1,1,1,1,1,1,1,0,1,1
0.093578000,0,1,1,1,1,1,1,1,1,0,1,0
0.093995000,0,0,0,0,0,0,0,0,0,0,0,0
0.094000000,0,1,1,1,1,0,1,1,1,0,1,0
0.094078000,0,1,1,1,1,0,1,1,1,0,1,1
0.094578000,0,1,1,1,1,0,1,1,1,0,1,0
0.094995000,0,0,0,0,0,0,0,0,0,0,0,0
0.095000000,1,1,1,1,1,1,0,1,1,0,1,0
0.095078000,1,1,1,1,1,1,0,1,1,0,1,1
0.095578000,1,1,1,1,1,1,0,1,1,0,1,0
0.095995000,0,0,0,0,0,0,0,0,0,0,0,0
0.096000000,1,1,1,1,1,0,0,1,1,0,1,0
0.096078000,1,1,1,1,1,0,0,1,1,0,1,1
0.096578000,1,1,1,1,1,0,0,1,1,0,1,0
0.096995000,0,0,0,0,0,0,0,0,0,0,0,0
0.097000000,0,1,1,1,1,1,1,0,1,0,1,0
0.097078000,0,1,1,1,1,1,1,0,1,0,1,1
0.097578000,0,1,1,1,1,1,1,0,1,0,1,0
0.097995000,0,0,0,0,0,0,0,0,0,0,0,0
0.098000000,0,1,0,0,0,1,1,0,1,0,1,0
0.098078000,0,1,0,0,0,1,1,0,1,0,1,1
0.098578000,0,1,0,0,0,1,1,0,1,0,1,0
0.098995000,0,0,0,0,0,0,0,0,0,0,0,0
0.099000000,1,0,1,0,0,0,1,0,1,0,1,0
0.099078000,1,0,1,0,0,0,1,0,1,0,1,1
0.099578000,1,0,1,0,0,0,1,0,1,0,1,0
0.099995000,0,0,0,0,0,0,0,0,0,0,0,0
0.100000000,1,0,0,1,0,1,0,0,1,0,1,0
0.100078000,1,0,0,1,0,1,0,0,1,0,1,1
0.100578000,1,0,0,1,0,1,0,0,1,0,1,0
0.100995000,0,0,0,0,0,0,0,0,0,0,0,0
0.101000000,0,1,0,1,0,0,0,0,1,0,1,0
0.101078000,0,1,0,1,0,0,0,0,1,0,1,1
0.101578000,0,1,0,1,0,0,0,0,1,0,1,0
0.101995000,0,0,0,0,0,0,0,0,0,0,0,0
0.102000000,1,0,0,0,1,1,1,1,0,0,1,0
0.102078000,1,0,0,0,1,1,1,1,0,0,1,1
0.102578000,1,0,0,0,1,1,1,1,0,0,1,0
0.102995000,0,0,0,0,0,0,0,0,0,0,0,0
0.103000000,0,1,1,0,1,0,1,1,0,0,1,0
0.103078000,0,1,1,0,1,0,1,1,0,0,1,1
0.103578000,0,1,1,0,1,0,1,1,0,0,1,0
0.103995000,0,0,0,0,0,0,0,0,0,0,0,0
0.104000000,0,0,0,0,0,0,1,1,0,0,1,0
0.104078000,0,0,0,0,0,0,1,1,0,0,1,1
0.104578000,0,0,0,0,0,0,1,1,0,0,1,0
0.104995000,0,0,0,0,0,0,0,0,0,0,0,0
0.105000000,0,1,0,0,0,1,0,1,0,0,1,0
0.105078000,0,1,0,0,0,1,0,1,0,0,1,1
0.105578000,0,1,0,0,0,1,0,1,0,0,1,0
0.105995000,0,0,0,0,0,0,0,0,0,0,0,0
0.106000000,1,1,1,1,0,0,0,1,0,0,1,0
0.106078000,1,1,1,1,0,0,0,1,0,0,1,1
0.106578000,1,1,1,1,0,0,0,1,0,0,1,0
0.106995000,0,0,0,0,0,0,0,0,0,0,0,0
0.107000000,1,0,0,1,1,1,1,0,0,0,1,0
0.107078000,1,0,0,1,1,1,1,0,0,0,1,1
0.107578000,1,0,0,1,1,1,1,0,0,0,1,0
0.107995000,0,0,0,0,0,0,0,0,0,0,0,0
0.108000000,1,0,1,0,0,1,1,0,0,0,1,0
0.108078000,1,0,1,0,0,1,1,0,0,0,1,1
0.108578000,1,0,1,0,0,1,1,0,0,0,1,0
0.108995000,0,0,0,0,0,0,0,0,0,0,0,0
0.109000000,0,1,0,1,1,0,1,0,0,0,1,0
0.109078000,0,1,0,1,1,0,1,0,0,0,1,1
0.109578000,0,1,0,1,1,0,1,0,0,0,1,0
0.109995000,0,0,0,0,0,0,0,0,0,0,0,0
0.110000000,1,1,0,0,0,0,1,0,0,0,1,0
0.110078000,1,1,0,0,0,0,1,0,0,0,1,1
0.110578000,1,1,0,0,0,0,1,0,0,0,1,0
0.110995000,0,0,0,0,0,0,0,0,0,0,0,0
0.111000000,1,1,1,0,1,1,0,0,0,0,1,0
0.111078000,1,1,1,0,1,1,0,0,0,0,1,1
0.111578000,1,1,1,0,1,1,0,0,0,0,1,0
0.111995000,0,0,0,0,0,0,0,0,0,0,0,0
0.112000000,1,1,0,1,0,1,0,0,0,0,1,0
0.112078000,1,1,0,1,0,1,0,0,0,0,1,1
0.112578000,1,1,0,1,0,1,0,0,0,0,1,0
0.112995000,0,0,0,0,0,0,0,0,0,0,0,0
0.113000000,0,0,0,0,0,1,0,0,0,0,1,0
0.113078000,0,0,0,0,0,1,0,0,0,0,1,1
0.113578000,0,0,0,0,0,1,0,0,0,0,1,0
0.113995000,0,0,0,0,0,0,0,0,0,0,0,0
0.114000000,1,0,0,1,1,0,0,0,0,0,1,0
0.114078000,1,0,0,1,1,0,0,0,0,0,1,1
0.114578000,1,0,0,1,1,0,0,0,0,0,1,0
0.114995000,0,0,0,0,0,0,0,0,0,0,0,0
0.115000000,1,0,0,0,1,0,0,0,0,0,1,0
0.115078000,1,0,0,0,1,0,0,0,0,0,1,1
0.115578000,1,0,0,0,1,0,0,0,0,0,1,0
0.115995000,0,0,0,0,0,0,0,0,0,0,0,0
0.116000000,0,1,0,1,0,0,0,0,0,0,1,0
0.116078000,0,1,0,1,0,0,0,0,0,0,1,1
0.116578000,0,1,0,1,0,0,0,0,0,0,1,0
0.116995000,0,0,0,0,0,0,0,0,0,0,0,0
0.117000000,0,0,0,1,0,0,0,0,0,0,1,0
0.117078000,0,0,0,1,0,0,0,0,0,0,1,1
0.117578000,0,0,0,1,0,0,0,0,0,0,1,0
0.117995000,0,0,0,0,0,0,0,0,0,0,0,0
0.118000000,0,0,0,1,0,0,0,0,0,0,1,0
0.118078000,0,0,0,1,0,0,0,0,0,0,1,1
0.118578000,0,0,0,1,0,0,0,0,0,0,1,0
0.118995000,0,0,0,0,0,0,0,0,0,0,0,0
0.119000000,1,1,0,1,0,0,0,0,0,0,1,0
0.119078000,1,1,0,1,0,0,0,0,0,0,1,1
0.119578000,1,1,0,1,0,0,0,0,0,0,1,0
0.119995000,0,0,0,0,0,0,0,0,0,0,0,0
0.120000000,1,0,0,1,0,0,0,0,0,0,1,0
0.120078000,1,0,0,1,0,0,0,0,0,0,1,1
0.120578000,1,0,0,1,0,0,0,0,0,0,1,0
0.120995000,0,0,0,0,0,0,0,0,0,0,0,0
0.121000000,0,1,1,1,0,0,0,0,0,0,1,0
0.121078000,0,1,1,1,0,0,0,0,0,0,1,1
0.121578000,0,1,1,1,0,0,0,0,0,0,1,0
0.121995000,0,0,0,0,0,0,0,0,0,0,0,0
0.122000000,1,0,0,1,1,0,0,0,0,0,1,0
0.122078000,1,0,0,1,1,0,0,0,0,0,1,1
0.122578000,1,0,0,1,1,0,0,0,0,0,1,0
0.122995000,0,0,0,0,0,0,0,0,0,0,0,0
0.123000000,0,0,1,0,0,1,0,0,0,0,1,0
0.123078000,0,0,1,0,0,1,0,0,0,0,1,1
0.123578000,0,0,1,0,0,1,0,0,0,0,1,0
0.123995000,0,0,0,0,0,0,0,0,0,0,0,0
0.124000000,1,0,0,0,1,1,0,0,0,0,1,0
0.124078000,1,0,0,0,1,1,0,0,0,0,1,1
0.124578000,1,0,0,0,1,1,0,0,0,0,1,0
0.124995000,0,0,0,0,0,0,0,0,0,0,0,0
0.125000000,1,0,0,1,1,1,0,0,0,0,1,0
0.125078000,1,0,0,1,1,1,0,0,0,0,1,1
0.125578000,1,0,0,1,1,1,0,0,0,0,1,0
0.125995000,0,0,0,0,0,0,0,0,0,0,0,0
0.126000000,1,1,1,0,0,0,1,0,0,0,1,0
0.126078000,1,1,1,0,0,0,1,0,0,0,1,1
0.126578000,1,1,1,0,0,0,1,0,0,0,1,0
0.126995000,0,0,0,0,0,0,0,0,0,0,0,0
0.127000000,0,1,0,1,1,0,1,0,0,0,1,0
0.127078000,0,1,0,1,1,0,1,0,0,0,1,1
0.127578000,0,1,0,1,1,0,1,0,0,0,1,0
0.127995000,0,0,0,0,0,0,0,0,0,0,0,0
0.128000000,0,1,0,1,0,1,1,0,0,0,1,0
0.128078000,0,1,0,1,0,1,1,0,0,0,1,1
0.128578000,0,1,0,1,0,1,1,0,0,0,1,0
0.128995000,0,0,0,0,0,0,0,0,0,0,0,0
0.129000000,1,1,0,1,1,1,1,0,0,0,1,0
0.129078000,1,1,0,1,1,1,1,0,0,0,1,1
0.129578000,1,1,0,1,1,1,1,0,0,0,1,0
0.129995000,0,0,0,0,0,0,0,0,0,0,0,0
0.130000000,1,0,1,1,0,0,0,1,0,0,1,0
0.130078000,1,0,1,1,0,0,0,1,0,0,1,1
0.130578000,1,0,1,1,0,0,0,1,0,0,1,0
0.130995000,0,0,0,0,0,0,0,0,0,0,0,0
0.131000000,0,1,1,0,0,1,0,1,0,0,1,0
0.131078000,0,1,1,0,0,1,0,1,0,0,1,1
0.131578000,0,1,1,0,0,1,0,1,0,0,1,0
0.131995000,0,0,0,0,0,0,0,0,0,0,0,0
0.132000000,1,0,0,0,0,0,1,1,0,0,1,0
0.132078000,1,0,0,0,0,0,1,1,0,0,1,1
0.132578000,1,0,0,0,0,0,1,1,0,0,1,0
0.132995000,0,0,0,0,0,0,0,0,0,0,0,0
0.133000000,1,0,0,1,1,0,1,1,0,0,1,0
0.133078000,1,0,0,1,1,0,1,1,0,0,1,1
0.133578000,1,0,0,1,1,0,1,1,0,0,1,0
0.133995000,0,0,0,0,0,0,0,0,0,0,0,0
0.134000000,1,0,0,0,1,1,1,1,0,0,1,0
0.134078000,1,0,0,0,1,1,1,1,0,0,1,1
0.134578000,1,0,0,0,1,1,1,1,0,0,1,0
0.134995000,0,0,0,0,0,0,0,0,0,0,0,0
0.135000000,0,1,0,1,0,0,0,0,1,0,1,0
0.135078000,0,1,0,1,0,0,0,0,1,0,1,1
0.135578000,0,1,0,1,0,0,0,0,1,0,1,0
0.135995000,0,0,0,0,0,0,0,0,0,0,0,0
