Time [s],Channel 0,Channel 1,Channel 2,Channel 3,Channel 4,Channel 5,Channel 6,Channel 7,Channel 8,Channel 9,Channel 10,Channel 11
-0.047890000,1,0,0,1,1,0,1,0,1,1,0,1
-0.047421000,1,0,0,1,1,0,1,0,1,1,0,0
-0.047005000,0,0,0,0,0,0,0,0,0,0,0,0
-0.047000000,0,1,1,1,1,0,0,0,1,1,0,0
-0.046921000,0,1,1,1,1,0,0,0,1,1,0,1
-0.046421000,0,1,1,1,1,0,0,0,1,1,0,0
-0.046005000,0,0,0,0,0,0,0,0,0,0,0,0
-0.046000000,1,1,1,1,1,0,1,1,0,1,0,0
-0.045921000,1,1,1,1,1,0,1,1,0,1,0,1
-0.045421000,1,1,1,1,1,0,1,1,0,1,0,0
-0.045005000,0,0,0,0,0,0,0,0,0,0,0,0
-0.045000000,0,1,1,0,0,1,0,1,0,1,0,0
-0.044921000,0,1,1,0,0,1,0,1,0,1,0,1
-0.044421000,0,1,1,0,0,1,0,1,0,1,0,0
-0.044005000,0,0,0,0,0,0,0,0,0,0,0,0
-0.044000000,0,0,1,1,0,1,1,0,0,1,0,0
-0.043921000,0,0,1,1,0,1,1,0,0,1,0,1
-0.043421000,0,0,1,1,0,1,1,0,0,1,0,0
-0.043005000,0,0,0,0,0,0,0,0,0,0,0,0
-0.043000000,1,0,1,0,1,1,0,0,0,1,0,0
-0.042921000,1,0,1,0,1,1,0,0,0,1,0,1
-0.042421000,1,0,1,0,1,1,0,0,0,1,0,0
-0.042005000,0,0,0,0,0,0,0,0,0,0,0,0
-0.042000000,1,0,1,1,1,1,1,1,1,0,0,0
-0.041921000,1,0,1,1,1,1,1,1,1,0,0,1
-0.041421000,1,0,1,1,1,1,1,1,1,0,0,0
-0.041005000,0,0,0,0,0,0,0,0,0,0,0,0
-0.041000000,1,0,0,1,0,0,1,1,1,0,0,0
-0.040922000,1,0,0,1,0,0,1,1,1,0,0,1
-0.040422000,1,0,0,1,0,0,1,1,1,0,0,0
-0.040005000,0,0,0,0,0,0,0,0,0,0,0,0
-0.040000000,1,1,1,0,1,0,0,1,1,0,0,0
-0.039922000,1,1,1,0,1,0,0,1,1,0,0,1
-0.039422000,1,1,1,0,1,0,0,1,1,0,0,0
-0.039005000,0,0,0,0,0,0,0,0,0,0,0,0
-0.039000000,0,1,0,1,0,1,1,0,1,0,0,0
-0.038922000,0,1,0,1,0,1,1,0,1,0,0,1
-0.038422000,0,1,0,1,0,1,1,0,1,0,0,0
-0.038005000,0,0,0,0,0,0,0,0,0,0,0,0
-0.038000000,0,0,1,1,1,1,0,0,1,0,0,0
-0.037922000,0,0,1,1,1,1,0,0,1,0,0,1
-0.037422000,0,0,1,1,1,1,0,0,1,0,0,0
-0.037005000,0,0,0,0,0,0,0,0,0,0,0,0
-0.037000000,1,0,0,0,1,0,0,0,1,0,0,0
-0.036922000,1,0,0,0,1,0,0,0,1,0,0,1
-0.036422000,1,0,0,0,1,0,0,0,1,0,0,0
-0.036005000,0,0,0,0,0,0,0,0,0,0,0,0
-0.036000000,0,1,0,1,0,1,1,1,0,0,0,0
-0.035922000,0,1,0,1,0,1,1,1,0,0,0,1
-0.035422000,0,1,0,1,0,1,1,1,0,0,0,0
-0.035005000,0,0,0,0,0,0,0,0,0,0,0,0
-0.035000000,1,1,1,0,0,0,1,1,0,0,0,0
-0.034922000,1,1,1,0,0,0,1,1,0,0,0,1
-0.034422000,1,1,1,0,0,0,1,1,0,0,0,0
-0.034005000,0,0,0,0,0,0,0,0,0,0,0,0
-0.034000000,1,1,1,0,0,1,0,1,0,0,0,0
-0.033922000,1,1,1,0,0,1,0,1,0,0,0,1
-0.033422000,1,1,1,0,0,1,0,1,0,0,0,0
-0.033005000,0,0,0,0,0,0,0,0,0,0,0,0
-0.033000000,0,1,0,1,0,0,0,1,0,0,0,0
-0.032922000,0,1,0,1,0,0,0,1,0,0,0,1
-0.032422000,0,1,0,1,0,0,0,1,0,0,0,0
-0.032005000,0,0,0,0,0,0,0,0,0,0,0,0
-0.032000000,1,1,1,1,0,1,1,0,0,0,0,0
-0.031922000,1,1,1,1,0,1,1,0,0,0,0,1
-0.031422000,1,1,1,1,0,1,1,0,0,0,0,0
-0.031005000,0,0,0,0,0,0,0,0,0,0,0,0
-0.031000000,0,0,0,1,1,0,1,0,0,0,0,0
-0.030922000,0,0,0,1,1,0,1,0,0,0,0,1
-0.030422000,0,0,0,1,1,0,1,0,0,0,0,0
-0.030005000,0,0,0,0,0,0,0,0,0,0,0,0
-0.030000000,0,0,0,1,0,0,1,0,0,0,0,0
-0.029922000,0,0,0,1,0,0,1,0,0,0,0,1
-0.029422000,0,0,0,1,0,0,1,0,0,0,0,0
-0.029005000,0,0,0,0,0,0,0,0,0,0,0,0
-0.029000000,0,0,0,1,1,1,0,0,0,0,0,0
-0.028922000,0,0,0,1,1,1,0,0,0,0,0,1
-0.028422000,0,0,0,1,1,1,0,0,0,0,0,0
-0.028005000,0,0,0,0,0,0,0,0,0,0,0,0
-0.028000000,1,1,1,1,0,1,0,0,0,0,0,0
-0.027922000,1,1,1,1,0,1,0,0,0,0,0,1
-0.027422000,1,1,1,1,0,1,0,0,0,0,0,0
-0.027005000,0,0,0,0,0,0,0,0,0,0,0,0
-0.027000000,0,1,0,1,0,1,0,0,0,0,0,0
-0.026922000,0,1,0,1,0,1,0,0,0,0,0,1
-0.026422000,0,1,0,1,0,1,0,0,0,0,0,0
-0.026005000,0,0,0,0,0,0,0,0,0,0,0,0
-0.026000000,0,1,1,0,0,1,0,0,0,0,0,0
-0.025922000,0,1,1,0,0,1,0,0,0,0,0,1
-0.025422000,0,1,1,0,0,1,0,0,0,0,0,0
-0.025005000,0,0,0,0,0,0,0,0,0,0,0,0
-0.025000000,1,0,1,0,0,1,0,0,0,0,0,0
-0.024922000,1,0,1,0,0,1,0,0,0,0,0,1
-0.024422000,1,0,1,0,0,1,0,0,0,0,0,0
-0.024005000,0,0,0,0,0,0,0,0,0,0,0,0
-0.024000000,1,1,1,0,0,1,0,0,0,0,0,0
-0.023922000,1,1,1,0,0,1,0,0,0,0,0,1
-0.023422000,1,1,1,0,0,1,0,0,0,0,0,0
-0.023005000,0,0,0,0,0,0,0,0,0,0,0,0
-0.023000000,1,0,1,0,1,1,0,0,0,0,0,0
-0.022922000,1,0,1,0,1,1,0,0,0,0,0,1
-0.022422000,1,0,1,0,1,1,0,0,0,0,0,0
-0.022005000,0,0,0,0,0,0,0,0,0,0,0,0
-0.022000000,0,1,1,0,0,0,1,0,0,0,0,0
-0.021922000,0,1,1,0,0,0,1,0,0,0,0,1
-0.021422000,0,1,1,0,0,0,1,0,0,0,0,0
-0.021005000,0,0,0,0,0,0,0,0,0,0,0,0
-0.021000000,1,0,0,0,1,0,1,0,0,0,0,0
-0.020922000,1,0,0,0,1,0,1,0,0,0,0,1
-0.020422000,1,0,0,0,1,0,1,0,0,0,0,0
-0.020005000,0,0,0,0,0,0,0,0,0,0,0,0
-0.020000000,0,1,0,0,0,1,1,0,0,0,0,0
-0.019922000,0,1,0,0,0,1,1,0,0,0,0,1
-0.019422000,0,1,0,0,0,1,1,0,0,0,0,0
-0.019005000,0,0,0,0,0,0,0,0,0,0,0,0
-0.019000000,1,1,1,1,1,1,1,0,0,0,0,0
-0.018922000,1,1,1,1,1,1,1,0,0,0,0,1
-0.018422000,1,1,1,1,1,1,1,0,0,0,0,0
-0.018005000,0,0,0,0,0,0,0,0,0,0,0,0
-0.018000000,1,1,0,0,0,1,0,1,0,0,0,0
-0.017922000,1,1,0,0,0,1,0,1,0,0,0,1
-0.017422000,1,1,0,0,0,1,0,1,0,0,0,0
-0.017005000,0,0,0,0,0,0,0,0,0,0,0,0
-0.017000000,1,0,0,0,0,0,1,1,0,0,0,0
-0.016922000,1,0,0,0,0,0,1,1,0,0,0,1
-0.016422000,1,0,0,0,0,0,1,1,0,0,0,0
-0.016005000,0,0,0,0,0,0,0,0,0,0,0,0
-0.016000000,0,1,1,1,1,0,1,1,0,0,0,0
-0.015922000,0,1,1,1,1,0,1,1,0,0,0,1
-0.015422000,0,1,1,1,1,0,1,1,0,0,0,0
-0.015005000,0,0,0,0,0,0,0,0,0,0,0,0
-0.015000000,1,1,1,1,1,1,1,1,0,0,0,0
-0.014922000,1,1,1,1,1,1,1,1,0,0,0,1
-0.014422000,1,1,1,1,1,1,1,1,0,0,0,0
-0.014005000,0,0,0,0,0,0,0,0,0,0,0,0
-0.014000000,1,0,0,1,0,1,0,0,1,0,0,0
-0.013922000,1,0,0,1,0,1,0,0,1,0,0,1
-0.013422000,1,0,0,1,0,1,0,0,1,0,0,0
-0.013005000,0,0,0,0,0,0,0,0,0,0,0,0
-0.013000000,0,1,1,0,1,0,1,0,1,0,0,0
-0.012922000,0,1,1,0,1,0,1,0,1,0,0,1
-0.012422000,0,1,1,0,1,0,1,0,1,0,0,0
-0.012005000,0,0,0,0,0,0,0,0,0,0,0,0
-0.012000000,1,1,0,0,0,0,0,1,1,0,0,0
-0.011922000,1,1,0,0,0,0,0,1,1,0,0,1
-0.011422000,1,1,0,0,0,0,0,1,1,0,0,0
-0.011005000,0,0,0,0,0,0,0,0,0,0,0,0
-0.011000000,0,0,0,0,1,1,0,1,1,0,0,0
-0.010922000,0,0,0,0,1,1,0,1,1,0,0,1
-0.010422000,0,0,0,0,1,1,0,1,1,0,0,0
-0.010005000,0,0,0,0,0,0,0,0,0,0,0,0
-0.010000000,1,0,0,1,0,1,1,1,1,0,0,0
-0.009922000,1,0,0,1,0,1,1,1,1,0,0,1
-0.009422000,1,0,0,1,0,1,1,1,1,0,0,0
-0.009005000,0,0,0,0,0,0,0,0,0,0,0,0
-0.009000000,1,0,1,1,1,0,0,0,0,1,0,0
-0.008922000,1,0,1,1,1,0,0,0,0,1,0,1
-0.008422000,1,0,1,1,1,0,0,0,0,1,0,0
-0.008005000,0,0,0,0,0,0,0,0,0,0,0,0
-0.008000000,0,0,0,0,1,0,1,0,0,1,0,0
-0.007922000,0,0,0,0,1,0,1,0,0,1,0,1
-0.007422000,0,0,0,0,1,0,1,0,0,1,0,0
-0.007005000,0,0,0,0,0,0,0,0,0,0,0,0
-0.007000000,1,1,1,0,0,0,0,1,0,1,0,0
-0.006922000,1,1,1,0,0,0,0,1,0,1,0,1
-0.006422000,1,1,1,0,0,0,0,1,0,1,0,0
-0.006005000,0,0,0,0,0,0,0,0,0,0,0,0
-0.006000000,1,1,0,0,0,0,1,1,0,1,0,0
-0.005922000,1,1,0,0,0,0,1,1,0,1,0,1
-0.005422000,1,1,0,0,0,0,1,1,0,1,0,0
-0.005005000,0,0,0,0,0,0,0,0,0,0,0,0
-0.005000000,1,1,1,1,1,1,1,1,0,1,0,0
-0.004922000,1,1,1,1,1,1,1,1,0,1,0,1
-0.004422000,1,1,1,1,1,1,1,1,0,1,0,0
-0.004005000,0,0,0,0,0,0,0,0,0,0,0,0
-0.004000000,1,0,0,1,1,1,0,0,1,1,0,0
-0.003922000,1,0,0,1,1,1,0,0,1,1,0,1
-0.003422000,1,0,0,1,1,1,0,0,1,1,0,0
-0.003005000,0,0,0,0,0,0,0,0,0,0,0,0
-0.003000000,0,1,1,0,1,1,1,0,1,1,0,0
-0.002922000,0,1,1,0,1,1,1,0,1,1,0,1
-0.002422000,0,1,1,0,1,1,1,0,1,1,0,0
-0.002005000,0,0,0,0,0,0,0,0,0,0,0,0
-0.002000000,1,0,1,0,1,1,0,1,1,1,0,0
-0.001922000,1,0,1,0,1,1,0,1,1,1,0,1
-0.001422000,1,0,1,0,1,1,0,1,1,1,0,0
-0.001005000,0,0,0,0,0,0,0,0,0,0,0,0
-0.001000000,0,0,1,0,1,1,1,1,1,1,0,0
-0.000922000,0,0,1,0,1,1,1,1,1,1,0,1
-0.000422000,0,0,1,0,1,1,1,1,1,1,0,0
-0.000005000,0,0,0,0,0,0,0,0,0,0,0,0
0.000000000,0,1,0,0,1,1,0,0,0,0,1,0
0.000078000,0,1,0,0,1,1,0,0,0,0,1,1
0.000578000,0,1,0,0,1,1,0,0,0,0,1,0
0.000995000,0,0,0,0,0,0,0,0,0,0,0,0
0.001000000,0,1,0,0,1,1,1,0,0,0,1,0
0.001078000,0,1,0,0,1,1,1,0,0,0,1,1
0.001578000,0,1,0,0,1,1,1,0,0,0,1,0
0.001995000,0,0,0,0,0,0,0,0,0,0,0,0
0.002000000,0,1,0,0,1,1,0,1,0,0,1,0
0.002078000,0,1,0,0,1,1,0,1,0,0,1,1
0.002578000,0,1,0,0,1,1,0,1,0,0,1,0
0.002995000,0,0,0,0,0,0,0,0,0,0,0,0
0.003000000,1,0,1,1,0,1,1,1,0,0,1,0
0.003078000,1,0,1,1,0,1,1,1,0,0,1,1
0.003578000,1,0,1,1,0,1,1,1,0,0,1,0
0.003995000,0,0,0,0,0,0,0,0,0,0,0,0
0.004000000,0,0,0,1,0,1,0,0,1,0,1,0
0.004078000,0,0,0,1,0,1,0,0,1,0,1,1
0.004578000,0,0,0,1,0,1,0,0,1,0,1,0
0.004995000,0,0,0,0,0,0,0,0,0,0,0,0
0.005000000,0,0,1,0,0,1,1,0,1,0,1,0
0.005078000,0,0,1,0,0,1,1,0,1,0,1,1
0.005578000,0,0,1,0,0,1,1,0,1,0,1,0
0.005995000,0,0,0,0,0,0,0,0,0,0,0,0
0.006000000,1,0,1,1,1,0,0,1,1,0,1,0
0.006078000,1,0,1,1,1,0,0,1,1,0,1,1
0.006578000,1,0,1,1,1,0,0,1,1,0,1,0
0.006995000,0,0,0,0,0,0,0,0,0,0,0,0
0.007000000,0,0,0,0,1,0,1,1,1,0,1,0
0.007078000,0,0,0,0,1,0,1,1,1,0,1,1
0.007578000,0,0,0,0,1,0,1,1,1,0,1,0
0.007995000,0,0,0,0,0,0,0,0,0,0,0,0
0.008000000,0,0,0,1,0,0,0,0,0,1,1,0
0.008078000,0,0,0,1,0,0,0,0,0,1,1,1
0.008578000,0,0,0,1,0,0,0,0,0,1,1,0
0.008995000,0,0,0,0,0,0,0,0,0,0,0,0
0.009000000,0,1,0,0,0,0,1,0,0,1,1,0
0.009078000,0,1,0,0,0,0,1,0,0,1,1,1
0.009578000,0,1,0,0,0,0,1,0,0,1,1,0
0.009995000,0,0,0,0,0,0,0,0,0,0,0,0
0.010000000,1,1,1,0,1,1,1,0,0,1,1,0
0.010078000,1,1,1,0,1,1,1,0,0,1,1,1
0.010578000,1,1,1,0,1,1,1,0,0,1,1,0
0.010995000,0,0,0,0,0,0,0,0,0,0,0,0
0.011000000,0,1,0,0,0,1,0,1,0,1,1,0
0.011078000,0,1,0,0,0,1,0,1,0,1,1,1
0.011578000,0,1,0,0,0,1,0,1,0,1,1,0
0.011995000,0,0,0,0,0,0,0,0,0,0,0,0
0.012000000,0,1,0,1,0,0,1,1,0,1,1,0
0.012078000,0,1,0,1,0,0,1,1,0,1,1,1
0.012578000,0,1,0,1,0,0,1,1,0,1,1,0
0.012995000,0,0,0,0,0,0,0,0,0,0,0,0
0.013000000,1,0,0,1,1,1,1,1,0,1,1,0
0.013078000,1,0,0,1,1,1,1,1,0,1,1,1
0.013578000,1,0,0,1,1,1,1,1,0,1,1,0
0.013995000,0,0,0,0,0,0,0,0,0,0,0,0
0.014000000,0,0,0,1,0,1,0,0,1,1,1,0
0.014078000,0,0,0,1,0,1,0,0,1,1,1,1
0.014578000,0,0,0,1,0,1,0,0,1,1,1,0
0.014995000,0,0,0,0,0,0,0,0,0,0,0,0
0.015000000,0,1,0,1,0,0,1,0,1,1,1,0
0.015078000,0,1,0,1,0,0,1,0,1,1,1,1
0.015578000,0,1,0,1,0,0,1,0,1,1,1,0
0.015995000,0,0,0,0,0,0,0,0,0,0,0,0
0.016000000,0,0,1,0,0,1,1,0,1,1,1,0
0.016078000,0,0,1,0,0,1,1,0,1,1,1,1
0.016578000,0,0,1,0,0,1,1,0,1,1,1,0
0.016995000,0,0,0,0,0,0,0,0,0,0,0,0
0.017000000,0,0,0,0,0,0,0,1,1,1,1,0
0.017078000,0,0,0,0,0,0,0,1,1,1,1,1
0.017578000,0,0,0,0,0,0,0,1,1,1,1,0
0.017995000,0,0,0,0,0,0,0,0,0,0,0,0
0.018000000,0,1,0,0,0,1,0,1,1,1,1,0
0.018078000,0,1,0,0,0,1,0,1,1,1,1,1
0.018578000,0,1,0,0,0,1,0,1,1,1,1,0
0.018995000,0,0,0,0,0,0,0,0,0,0,0,0
0.019000000,1,1,0,1,1,1,0,1,1,1,1,0
0.019078000,1,1,0,1,1,1,0,1,1,1,1,1
0.019578000,1,1,0,1,1,1,0,1,1,1,1,0
0.019995000,0,0,0,0,0,0,0,0,0,0,0,0
0.020000000,1,1,0,1,0,0,1,1,1,1,1,0
0.020078000,1,1,0,1,0,0,1,1,1,1,1,1
0.020578000,1,1,0,1,0,0,1,1,1,1,1,0
0.020995000,0,0,0,0,0,0,0,0,0,0,0,0
0.021000000,1,1,0,0,1,0,1,1,1,1,1,0
0.021078000,1,1,0,0,1,0,1,1,1,1,1,1
0.021578000,1,1,0,0,1,0,1,1,1,1,1,0
0.021995000,0,0,0,0,0,0,0,0,0,0,0,0
0.022000000,0,0,1,0,0,1,1,1,1,1,1,0
0.022078000,0,0,1,0,0,1,1,1,1,1,1,1
0.022578000,0,0,1,0,0,1,1,1,1,1,1,0
0.022995000,0,0,0,0,0,0,0,0,0,0,0,0
0.023000000,1,0,0,1,0,1,1,1,1,1,1,0
0.023078000,1,0,0,1,0,1,1,1,1,1,1,1
0.023578000,1,0,0,1,0,1,1,1,1,1,1,0
0.023995000,0,0,0,0,0,0,0,0,0,0,0,0
0.024000000,0,1,0,1,0,1,1,1,1,1,1,0
0.024078000,0,1,0,1,0,1,1,1,1,1,1,1
0.024578000,0,1,0,1,0,1,1,1,1,1,1,0
0.024995000,0,0,0,0,0,0,0,0,0,0,0,0
0.025000000,0,1,0,1,0,1,1,1,1,1,1,0
0.025078000,0,1,0,1,0,1,1,1,1,1,1,1
0.025578000,0,1,0,1,0,1,1,1,1,1,1,0
0.025995000,0,0,0,0,0,0,0,0,0,0,0,0
0.026000000,0,1,0,1,0,1,1,1,1,1,1,0
0.026078000,0,1,0,1,0,1,1,1,1,1,1,1
0.026578000,0,1,0,1,0,1,1,1,1,1,1,0
0.026995000,0,0,0,0,0,0,0,0,0,0,0,0
0.027000000,1,0,0,1,0,1,1,1,1,1,1,0
0.027078000,1,0,0,1,0,1,1,1,1,1,1,1
0.027578000,1,0,0,1,0,1,1,1,1,1,1,0
0.027995000,0,0,0,0,0,0,0,0,0,0,0,0
0.028000000,1,0,1,1,1,0,1,1,1,1,1,0
0.028078000,1,0,1,1,1,0,1,1,1,1,1,1
0.028578000,1,0,1,1,1,0,1,1,1,1,1,0
0.028995000,0,0,0,0,0,0,0,0,0,0,0,0
0.029000000,1,1,1,0,0,0,1,1,1,1,1,0
0.029078000,1,1,1,0,0,0,1,1,1,1,1,1
0.029578000,1,1,1,0,0,0,1,1,1,1,1,0
0.029995000,0,0,0,0,0,0,0,0,0,0,0,0
0.030000000,0,1,1,1,0,1,0,1,1,1,1,0
0.030078000,0,1,1,1,0,1,0,1,1,1,1,1
0.030578000,0,1,1,1,0,1,0,1,1,1,1,0
0.030995000,0,0,0,0,0,0,0,0,0,0,0,0
0.031000000,0,1,1,1,1,0,0,1,1,1,1,0
0.031078000,0,1,1,1,1,0,0,1,1,1,1,1
0.031578000,0,1,1,1,1,0,0,1,1,1,1,0
0.031995000,0,0,0,0,0,0,0,0,0,0,0,0
0.032000000,0,0,0,1,0,0,0,1,1,1,1,0
0.032078000,0,0,0,1,0,0,0,1,1,1,1,1
0.032578000,0,0,0,1,0,0,0,1,1,1,1,0
0.032995000,0,0,0,0,0,0,0,0,0,0,0,0
0.033000000,0,1,1,0,0,1,1,0,1,1,1,0
0.033078000,0,1,1,0,0,1,1,0,1,1,1,1
0.033578000,0,1,1,0,0,1,1,0,1,1,1,0
0.033995000,0,0,0,0,0,0,0,0,0,0,0,0
0.034000000,0,0,0,0,0,0,1,0,1,1,1,0
0.034078000,0,0,0,0,0,0,1,0,1,1,1,1
0.034578000,0,0,0,0,0,0,1,0,1,1,1,0
0.034995000,0,0,0,0,0,0,0,0,0,0,0,0
0.035000000,0,1,0,1,1,0,0,0,1,1,1,0
0.035078000,0,1,0,1,1,0,0,0,1,1,1,1
0.035578000,0,1,0,1,1,0,0,0,1,1,1,0
0.035995000,0,0,0,0,0,0,0,0,0,0,0,0
0.036000000,0,1,0,1,1,1,1,1,0,1,1,0
0.036078000,0,1,0,1,1,1,1,1,0,1,1,1
0.036578000,0,1,0,1,1,1,1,1,0,1,1,0
0.036995000,0,0,0,0,0,0,0,0,0,0,0,0
0.037000000,1,1,1,1,0,0,1,1,0,1,1,0
0.037078000,1,1,1,1,0,0,1,1,0,1,1,1
0.037578000,1,1,1,1,0,0,1,1,0,1,1,0
0.037995000,0,0,0,0,0,0,0,0,0,0,0,0
0.038000000,1,1,1,1,1,0,0,1,0,1,1,0
0.038078000,1,1,1,1,1,0,0,1,0,1,1,1
0.038578000,1,1,1,1,1,0,0,1,0,1,1,0
0.038995000,0,0,0,0,0,0,0,0,0,0,0,0
0.039000000,1,0,0,1,0,1,1,0,0,1,1,0
0.039078000,1,0,0,1,0,1,1,0,0,1,1,1
0.039578000,1,0,0,1,0,1,1,0,0,1,1,0
0.039995000,0,0,0,0,0,0,0,0,0,0,0,0
0.040000000,1,0,1,0,1,1,0,0,0,1,1,0
0.040078000,1,0,1,0,1,1,0,0,0,1,1,1
0.040578000,1,0,1,0,1,1,0,0,0,1,1,0
0.040995000,0,0,0,0,0,0,0,0,0,0,0,0
0.041000000,0,0,1,0,0,0,0,0,0,1,1,0
0.041078000,0,0,1,0,0,0,0,0,0,1,1,1
0.041578000,0,0,1,0,0,0,0,0,0,1,1,0
0.041995000,0,0,0,0,0,0,0,0,0,0,0,0
0.042000000,0,1,1,1,0,0,1,1,1,0,1,0
0.042078000,0,1,1,1,0,0,1,1,1,0,1,1
0.042578000,0,1,1,1,0,0,1,1,1,0,1,0
0.042995000,0,0,0,0,0,0,0,0,0,0,0,0
0.043000000,1,1,1,0,1,0,0,1,1,0,1,0
0.043078000,1,1,1,0,1,0,0,1,1,0,1,1
0.043578000,1,1,1,0,1,0,0,1,1,0,1,0
0.043995000,0,0,0,0,0,0,0,0,0,0,0,0
0.044000000,1,1,0,1,1,0,1,0,1,0,1,0
0.044078000,1,1,0,1,1,0,1,0,1,0,1,1
0.044578000,1,1,0,1,1,0,1,0,1,0,1,0
0.044995000,0,0,0,0,0,0,0,0,0,0,0,0
0.044999000,0,0,0,0,0,1,0,0,1,0,0,0
0.045000000,0,0,0,0,0,1,0,0,1,0,1,0
0.045078000,0,0,0,0,0,1,0,0,1,0,1,1
0.045578000,0,0,0,0,0,1,0,0,1,0,1,0
0.045995000,0,0,0,0,0,0,0,0,0,0,0,0
0.045999000,0,0,0,0,0,1,1,1,0,0,0,0
0.046000000,0,1,1,0,0,1,1,1,0,0,1,0
0.046078000,0,1,1,0,0,1,1,1,0,0,1,1
0.046578000,0,1,1,0,0,1,1,1,0,0,1,0
0.046995000,0,0,0,0,0,0,0,0,0,0,0,0
0.046999000,0,0,0,1,0,1,0,1,0,0,0,0
0.047000000,0,1,0,1,0,1,0,1,0,0,1,0
0.047078000,0,1,0,1,0,1,0,1,0,0,1,1
0.047578000,0,1,0,1,0,1,0,1,0,0,1,0
0.047995000,0,0,0,0,0,0,0,0,0,0,0,0
0.047999000,0,1,0,1,0,1,1,0,0,0,1,0
0.048078000,0,1,0,1,0,1,1,0,0,0,1,1
0.048578000,0,1,0,1,0,1,1,0,0,0,1,0
0.048995000,0,0,0,0,0,0,0,0,0,0,0,0
0.048999000,0,0,1,1,0,1,0,0,0,0,1,0
0.049078000,0,0,1,1,0,1,0,0,0,0,1,1
0.049578000,0,0,1,1,0,1,0,0,0,0,1,0
0.049995000,0,0,0,0,0,0,0,0,0,0,0,0
0.049999000,0,0,1,1,0,1,1,1,1,1,0,0
0.050078000,0,0,1,1,0,1,1,1,1,1,0,1
0.050578000,0,0,1,1,0,1,1,1,1,1,0,0
0.050995000,0,0,0,0,0,0,0,0,0,0,0,0
0.050999000,1,0,1,1,0,1,0,1,1,1,0,0
0.051078000,1,0,1,1,0,1,0,1,1,1,0,1
0.051578000,1,0,1,1,0,1,0,1,1,1,0,0
0.051995000,0,0,0,0,0,0,0,0,0,0,0,0
0.051999000,1,1,1,1,0,1,1,0,1,1,0,0
0.052078000,1,1,1,1,0,1,1,0,1,1,0,1
0.052578000,1,1,1,1,0,1,1,0,1,1,0,0
0.052995000,0,0,0,0,0,0,0,0,0,0,0,0
0.052999000,1,0,0,0,1,1,0,0,1,1,0,0
0.053078000,1,0,0,0,1,1,0,0,1,1,0,1
0.053578000,1,0,0,0,1,1,0,0,1,1,0,0
0.053995000,0,0,0,0,0,0,0,0,0,0,0,0
0.053999000,1,1,1,0,1,1,1,1,0,1,0,0
0.054078000,1,1,1,0,1,1,1,1,0,1,0,1
0.054578000,1,1,1,0,1,1,1,1,0,1,0,0
0.054995000,0,0,0,0,0,0,0,0,0,0,0,0
0.054999000,1,0,0,1,1,1,0,1,0,1,0,0
0.055078000,1,0,0,1,1,1,0,1,0,1,0,1
0.055578000,1,0,0,1,1,1,0,1,0,1,0,0
0.055995000,0,0,0,0,0,0,0,0,0,0,0,0
0.055999000,0,1,0,0,0,0,0,1,0,1,0,0
0.056078000,0,1,0,0,0,0,0,1,0,1,0,1
0.056578000,0,1,0,0,0,0,0,1,0,1,0,0
0.056995000,0,0,0,0,0,0,0,0,0,0,0,0
0.056999000,1,1,0,1,0,0,1,0,0,1,0,0
0.057078000,1,1,0,1,0,0,1,0,0,1,0,1
0.057578000,1,1,0,1,0,0,1,0,0,1,0,0
0.057995000,0,0,0,0,0,0,0,0,0,0,0,0
0.057999000,1,0,1,0,1,0,0,0,0,1,0,0
0.058078000,1,0,1,0,1,0,0,0,0,1,0,1
0.058578000,1,0,1,0,1,0,0,0,0,1,0,0
0.058995000,0,0,0,0,0,0,0,0,0,0,0,0
0.058999000,0,0,1,1,1,0,1,1,1,0,0,0
0.059078000,0,0,1,1,1,0,1,1,1,0,0,1
0.059578000,0,0,1,1,1,0,1,1,1,0,0,0
0.059995000,0,0,0,0,0,0,0,0,0,0,0,0
0.059999000,0,0,0,1,0,1,0,1,1,0,0,0
0.060078000,0,0,0,1,0,1,0,1,1,0,0,1
0.060578000,0,0,0,1,0,1,0,1,1,0,0,0
0.060995000,0,0,0,0,0,0,0,0,0,0,0,0
0.060999000,0,1,0,1,1,1,1,0,1,0,0,0
0.061078000,0,1,0,1,1,1,1,0,1,0,0,1
0.061578000,0,1,0,1,1,1,1,0,1,0,0,0
0.061995000,0,0,0,0,0,0,0,0,0,0,0,0
0.061999000,0,0,0,0,1,0,1,0,1,0,0,0
0.062078000,0,0,0,0,1,0,1,0,1,0,0,1
0.062578000,0,0,0,0,1,0,1,0,1,0,0,0
0.062994000,0,0,0,0,0,0,0,0,0,0,0,0
0.062999000,1,1,0,0,0,1,0,0,1,0,0,0
0.063078000,1,1,0,0,0,1,0,0,1,0,0,1
0.063578000,1,1,0,0,0,1,0,0,1,0,0,0
0.063994000,0,0,0,0,0,0,0,0,0,0,0,0
0.063999000,0,1,0,0,1,1,1,1,0,0,0,0
0.064078000,0,1,0,0,1,1,1,1,0,0,0,1
0.064578000,0,1,0,0,1,1,1,1,0,0,0,0
0.064994000,0,0,0,0,0,0,0,0,0,0,0,0
0.064999000,1,0,1,1,0,0,1,1,0,0,0,0
0.065078000,1,0,1,1,0,0,1,1,0,0,0,1
0.065578000,1,0,1,1,0,0,1,1,0,0,0,0
0.065994000,0,0,0,0,0,0,0,0,0,0,0,0
0.065999000,0,0,1,0,1,1,0,1,0,0,0,0
0.066078000,0,0,1,0,1,1,0,1,0,0,0,1
0.066578000,0,0,1,0,1,1,0,1,0,0,0,0
0.066994000,0,0,0,0,0,0,0,0,0,0,0,0
0.066999000,0,0,0,1,1,0,0,1,0,0,0,0
0.067078000,0,0,0,1,1,0,0,1,0,0,0,1
0.067578000,0,0,0,1,1,0,0,1,0,0,0,0
0.067994000,0,0,0,0,0,0,0,0,0,0,0,0
0.067999000,0,0,0,1,1,1,1,0,0,0,0,0
0.068078000,0,0,0,1,1,1,1,0,0,0,0,1
0.068578000,0,0,0,1,1,1,1,0,0,0,0,0
0.068994000,0,0,0,0,0,0,0,0,0,0,0,0
0.068999000,1,1,0,1,1,0,1,0,0,0,0,0
0.069078000,1,1,0,1,1,0,1,0,0,0,0,1
0.069578000,1,1,0,1,1,0,1,0,0,0,0,0
0.069994000,0,0,0,0,0,0,0,0,0,0,0,0
0.069999000,0,1,0,1,0,0,1,0,0,0,0,0
0.070078000,0,1,0,1,0,0,1,0,0,0,0,1
0.070578000,0,1,0,1,0,0,1,0,0,0,0,0
0.070994000,0,0,0,0,0,0,0,0,0,0,0,0
0.070999000,1,0,0,0,0,0,1,0,0,0,0,0
0.071078000,1,0,0,0,0,0,1,0,0,0,0,1
0.071578000,1,0,0,0,0,0,1,0,0,0,0,0
0.071994000,0,0,0,0,0,0,0,0,0,0,0,0
0.071999000,0,0,1,0,1,1,0,0,0,0,0,0
0.072078000,0,0,1,0,1,1,0,0,0,0,0,1
0.072578000,0,0,1,0,1,1,0,0,0,0,0,0
0.072994000,0,0,0,0,0,0,0,0,0,0,0,0
0.072999000,1,1,1,0,0,1,0,0,0,0,0,0
0.073078000,1,1,1,0,0,1,0,0,0,0,0,1
0.073578000,1,1,1,0,0,1,0,0,0,0,0,0
0.073994000,0,0,0,0,0,0,0,0,0,0,0,0
0.073999000,0,1,1,1,1,0,0,0,0,0,0,0
0.074078000,0,1,1,1,1,0,0,0,0,0,0,1
0.074578000,0,1,1,1,1,0,0,0,0,0,0,0
0.074994000,0,0,0,0,0,0,0,0,0,0,0,0
0.074999000,0,0,1,0,0,1,0,0,0,0,0,0
0.075078000,0,0,1,0,0,1,0,0,0,0,0,1
0.075578000,0,0,1,0,0,1,0,0,0,0,0,0
0.075994000,0,0,0,0,0,0,0,0,0,0,0,0
0.075999000,1,1,0,1,0,1,0,0,0,0,0,0
0.076078000,1,1,0,1,0,1,0,0,0,0,0,1
0.076578000,1,1,0,1,0,1,0,0,0,0,0,0
0.076994000,0,0,0,0,0,0,0,0,0,0,0,0
0.076999000,0,0,0,0,1,1,0,0,0,0,0,0
0.077078000,0,0,0,0,1,1,0,0,0,0,0,1
0.077578000,0,0,0,0,1,1,0,0,0,0,0,0
0.077994000,0,0,0,0,0,0,0,0,0,0,0,0
0.077999000,1,1,1,0,1,1,0,0,0,0,0,0
0.078078000,1,1,1,0,1,1,0,0,0,0,0,1
0.078578000,1,1,1,0,1,1,0,0,0,0,0,0
0.078994000,0,0,0,0,0,0,0,0,0,0,0,0
0.078999000,0,0,0,1,0,0,1,0,0,0,0,0
0.079078000,0,0,0,1,0,0,1,0,0,0,0,1
0.079578000,0,0,0,1,0,0,1,0,0,0,0,0
0.079994000,0,0,0,0,0,0,0,0,0,0,0,0
0.079999000,0,0,1,1,1,0,1,0,0,0,0,0
0.080078000,0,0,1,1,1,0,1,0,0,0,0,1
0.080578000,0,0,1,1,1,0,1,0,0,0,0,0
0.080994000,0,0,0,0,0,0,0,0,0,0,0,0
0.080999000,0,0,1,0,1,1,1,0,0,0,0,0
0.081078000,0,0,1,0,1,1,1,0,0,0,0,1
0.081578000,0,0,1,0,1,1,1,0,0,0,0,0
0.081994000,0,0,0,0,0,0,0,0,0,0,0,0
0.081999000,0,0,1,1,0,0,0,1,0,0,0,0
0.082078000,0,0,1,1,0,0,0,1,0,0,0,1
0.082578000,0,0,1,1,0,0,0,1,0,0,0,0
0.082994000,0,0,0,0,0,0,0,0,0,0,0,0
0.082999000,1,1,1,0,0,1,0,1,0,0,0,0
0.083078000,1,1,1,0,0,1,0,1,0,0,0,1
0.083578000,1,1,1,0,0,1,0,1,0,0,0,0
0.083994000,0,0,0,0,0,0,0,0,0,0,0,0
0.083999000,1,0,0,1,0,0,1,1,0,0,0,0
0.084078000,1,0,0,1,0,0,1,1,0,0,0,1
0.084578000,1,0,0,1,0,0,1,1,0,0,0,0
0.084994000,0,0,0,0,0,0,0,0,0,0,0,0
0.084999000,0,0,0,0,1,1,1,1,0,0,0,0
0.085078000,0,0,0,0,1,1,1,1,0,0,0,1
0.085578000,0,0,0,0,1,1,1,1,0,0,0,0
0.085994000,0,0,0,0,0,0,0,0,0,0,0,0
0.085999000,0,0,0,1,1,0,0,0,1,0,0,0
0.086078000,0,0,0,1,1,0,0,0,1,0,0,1
0.086578000,0,0,0,1,1,0,0,0,1,0,0,0
0.086994000,0,0,0,0,0,0,0,0,0,0,0,0
0.086999000,0,0,0,0,0,0,1,0,1,0,0,0
0.087078000,0,0,0,0,0,0,1,0,1,0,0,1
0.087578000,0,0,0,0,0,0,1,0,1,0,0,0
0.087994000,0,0,0,0,0,0,0,0,0,0,0,0
