Time [s],Channel 0,Channel 1,Channel 2,Channel 3,Channel 4,Channel 5,Channel 6,Channel 7,Channel 8,Channel 9,Channel 10,Channel 11
-0.000199000,1,1,0,1,0,0,1,0,0,1,1,0
-0.000083000,0,0,0,0,0,0,0,0,0,0,0,0
-0.000075000,0,1,1,0,0,0,1,0,0,1,1,0
-0.000074000,1,1,1,0,0,0,1,0,0,1,1,0
-0.000000000,1,1,1,0,0,0,1,0,0,1,1,1
0.000500000,1,1,1,0,0,0,1,0,0,1,1,0
0.000917000,0,0,0,0,0,0,0,0,0,0,0,0
0.000925000,0,0,0,1,0,0,1,0,0,1,1,0
0.000926000,1,1,0,1,0,0,1,0,0,1,1,0
0.001000000,1,1,0,1,0,0,1,0,0,1,1,1
0.001500000,1,1,0,1,0,0,1,0,0,1,1,0
0.001917000,0,0,0,0,0,0,0,0,0,0,0,0
0.001925000,1,1,0,1,0,0,1,0,0,1,1,0
0.002000000,1,1,0,1,0,0,1,0,0,1,1,1
0.002500000,1,1,0,1,0,0,1,0,0,1,1,0
0.002917000,0,0,0,0,0,0,0,0,0,0,0,0
0.002925000,0,1,0,1,0,0,1,0,0,1,1,0
0.002926000,1,1,0,1,0,0,1,0,0,1,1,0
0.003000000,1,1,0,1,0,0,1,0,0,1,1,1
0.003500000,1,1,0,1,0,0,1,0,0,1,1,0
0.003917000,0,0,0,0,0,0,0,0,0,0,0,0
0.003925000,0,1,0,1,0,0,1,0,0,1,1,0
0.003926000,1,1,0,1,0,0,1,0,0,1,1,0
0.004000000,1,1,0,1,0,0,1,0,0,1,1,1
0.004500000,1,1,0,1,0,0,1,0,0,1,1,0
0.004917000,0,0,0,0,0,0,0,0,0,0,0,0
0.004925000,0,0,0,1,0,0,1,0,0,1,1,0
0.005000000,0,0,0,1,0,0,1,0,0,1,1,1
0.005500000,0,0,0,1,0,0,1,0,0,1,1,0
0.005917000,0,0,0,0,0,0,0,0,0,0,0,0
0.005925000,0,0,0,1,0,0,1,0,0,1,1,0
0.006000000,0,0,0,1,0,0,1,0,0,1,1,1
0.006500000,0,0,0,1,0,0,1,0,0,1,1,0
0.006917000,0,0,0,0,0,0,0,0,0,0,0,0
0.006925000,0,0,0,1,0,0,1,0,0,1,1,0
0.007000000,0,0,0,1,0,0,1,0,0,1,1,1
0.007500000,0,0,0,1,0,0,1,0,0,1,1,0
0.007917000,0,0,0,0,0,0,0,0,0,0,0,0
0.007925000,1,1,0,0,0,0,1,0,0,1,1,0
0.008000000,1,1,0,0,0,0,1,0,0,1,1,1
0.008500000,1,1,0,0,0,0,1,0,0,1,1,0
0.008917000,0,0,0,0,0,0,0,0,0,0,0,0
0.008925000,1,1,1,0,0,0,1,0,0,1,1,0
0.009000000,1,1,1,0,0,0,1,0,0,1,1,1
0.009500000,1,1,1,0,0,0,1,0,0,1,1,0
0.009917000,0,0,0,0,0,0,0,0,0,0,0,0
0.009925000,1,0,1,0,0,0,1,0,0,1,1,0
0.010000000,1,0,1,0,0,0,1,0,0,1,1,1
0.010500000,1,0,1,0,0,0,1,0,0,1,1,0
0.010917000,0,0,0,0,0,0,0,0,0,0,0,0
0.010925000,1,1,0,0,0,0,1,0,0,1,1,0
0.011000000,1,1,0,0,0,0,1,0,0,1,1,1
0.011500000,1,1,0,0,0,0,1,0,0,1,1,0
0.011917000,0,0,0,0,0,0,0,0,0,0,0,0
0.011925000,1,0,0,1,0,0,1,0,0,1,1,0
0.012000000,1,0,0,1,0,0,1,0,0,1,1,1
0.012500000,1,0,0,1,0,0,1,0,0,1,1,0
0.012917000,0,0,0,0,0,0,0,0,0,0,0,0
0.012925000,0,1,0,1,0,0,1,0,0,1,1,0
0.013000000,0,1,0,1,0,0,1,0,0,1,1,1
0.013500000,0,1,0,1,0,0,1,0,0,1,1,0
0.013917000,0,0,0,0,0,0,0,0,0,0,0,0
0.013925000,1,0,1,0,0,0,1,0,0,1,1,0
0.014000000,1,0,1,0,0,0,1,0,0,1,1,1
0.014500000,1,0,1,0,0,0,1,0,0,1,1,0
0.014917000,0,0,0,0,0,0,0,0,0,0,0,0
0.014925000,0,0,0,1,0,0,1,0,0,1,1,0
0.015000000,0,0,0,1,0,0,1,0,0,1,1,1
0.015500000,0,0,0,1,0,0,1,0,0,1,1,0
0.015917000,0,0,0,0,0,0,0,0,0,0,0,0
0.015925000,1,1,1,0,0,0,1,0,0,1,1,0
0.016000000,1,1,1,0,0,0,1,0,0,1,1,1
0.016500000,1,1,1,0,0,0,1,0,0,1,1,0
0.016917000,0,0,0,0,0,0,0,0,0,0,0,0
0.016925000,1,0,0,1,0,0,1,0,0,1,1,0
0.017000000,1,0,0,1,0,0,1,0,0,1,1,1
0.017500000,1,0,0,1,0,0,1,0,0,1,1,0
0.017917000,0,0,0,0,0,0,0,0,0,0,0,0
0.017925000,0,1,1,0,0,0,1,0,0,1,1,0
0.018000000,0,1,1,0,0,0,1,0,0,1,1,1
0.018500000,0,1,1,0,0,0,1,0,0,1,1,0
0.018917000,0,0,0,0,0,0,0,0,0,0,0,0
0.018925000,0,0,0,1,0,0,1,0,0,1,1,0
0.019000000,0,0,0,1,0,0,1,0,0,1,1,1
0.019500000,0,0,0,1,0,0,1,0,0,1,1,0
0.019917000,0,0,0,0,0,0,0,0,0,0,0,0
0.019925000,1,1,1,0,0,0,1,0,0,1,1,0
0.020000000,1,1,1,0,0,0,1,0,0,1,1,1
0.020500000,1,1,1,0,0,0,1,0,0,1,1,0
0.020917000,0,0,0,0,0,0,0,0,0,0,0,0
0.020925000,1,1,0,1,0,0,1,0,0,1,1,0
0.021000000,1,1,0,1,0,0,1,0,0,1,1,1
0.021500000,1,1,0,1,0,0,1,0,0,1,1,0
0.021917000,0,0,0,0,0,0,0,0,0,0,0,0
0.021925000,0,0,1,1,0,0,1,0,0,1,1,0
0.022000000,0,0,1,1,0,0,1,0,0,1,1,1
0.022500000,0,0,1,1,0,0,1,0,0,1,1,0
0.022917000,0,0,0,0,0,0,0,0,0,0,0,0
0.022925000,1,0,1,1,0,0,1,0,0,1,1,0
0.023000000,1,0,1,1,0,0,1,0,0,1,1,1
0.023500000,1,0,1,1,0,0,1,0,0,1,1,0
0.023917000,0,0,0,0,0,0,0,0,0,0,0,0
0.023925000,1,0,1,1,0,0,1,0,0,1,1,0
0.024000000,1,0,1,1,0,0,1,0,0,1,1,1
0.024500000,1,0,1,1,0,0,1,0,0,1,1,0
0.024917000,0,0,0,0,0,0,0,0,0,0,0,0
0.024925000,1,1,0,1,0,0,1,0,0,1,1,0
0.025000000,1,1,0,1,0,0,1,0,0,1,1,1
0.025500000,1,1,0,1,0,0,1,0,0,1,1,0
0.025917000,0,0,0,0,0,0,0,0,0,0,0,0
0.025925000,1,1,1,0,0,0,1,0,0,1,1,0
0.026000000,1,1,1,0,0,0,1,0,0,1,1,1
0.026500000,1,1,1,0,0,0,1,0,0,1,1,0
0.026917000,0,0,0,0,0,0,0,0,0,0,0,0
0.026925000,1,1,1,0,0,0,1,0,0,1,1,0
0.027000000,1,1,1,0,0,0,1,0,0,1,1,1
0.027500000,1,1,1,0,0,0,1,0,0,1,1,0
0.027917000,0,0,0,0,0,0,0,0,0,0,0,0
0.027925000,0,1,1,0,0,0,1,0,0,1,1,0
0.028000000,0,1,1,0,0,0,1,0,0,1,1,1
0.028500000,0,1,1,0,0,0,1,0,0,1,1,0
0.028917000,0,0,0,0,0,0,0,0,0,0,0,0
0.028925000,0,0,0,1,0,0,1,0,0,1,1,0
0.029000000,0,0,0,1,0,0,1,0,0,1,1,1
0.029500000,0,0,0,1,0,0,1,0,0,1,1,0
0.029917000,0,0,0,0,0,0,0,0,0,0,0,0
0.029925000,0,1,1,0,0,0,1,0,0,1,1,0
0.030000000,0,1,1,0,0,0,1,0,0,1,1,1
0.030500000,0,1,1,0,0,0,1,0,0,1,1,0
0.030917000,0,0,0,0,0,0,0,0,0,0,0,0
0.030925000,1,0,1,0,0,0,1,0,0,1,1,0
0.031000000,1,0,1,0,0,0,1,0,0,1,1,1
0.031500000,1,0,1,0,0,0,1,0,0,1,1,0
0.031917000,0,0,0,0,0,0,0,0,0,0,0,0
0.031925000,0,1,1,0,0,0,1,0,0,1,1,0
0.032000000,0,1,1,0,0,0,1,0,0,1,1,1
0.032500000,0,1,1,0,0,0,1,0,0,1,1,0
0.032917000,0,0,0,0,0,0,0,0,0,0,0,0
0.032925000,0,1,1,0,0,0,1,0,0,1,1,0
0.033000000,0,1,1,0,0,0,1,0,0,1,1,1
0.033500000,0,1,1,0,0,0,1,0,0,1,1,0
0.033917000,0,0,0,0,0,0,0,0,0,0,0,0
0.033925000,1,0,1,0,0,0,1,0,0,1,1,0
0.034000000,1,0,1,0,0,0,1,0,0,1,1,1
0.034500000,1,0,1,0,0,0,1,0,0,1,1,0
0.034917000,0,0,0,0,0,0,0,0,0,0,0,0
0.034925000,1,0,0,1,0,0,1,0,0,1,1,0
0.035000000,1,0,0,1,0,0,1,0,0,1,1,1
0.035500000,1,0,0,1,0,0,1,0,0,1,1,0
0.035917000,0,0,0,0,0,0,0,0,0,0,0,0
0.035925000,0,0,0,1,0,0,1,0,0,1,1,0
0.036000000,0,0,0,1,0,0,1,0,0,1,1,1
0.036500000,0,0,0,1,0,0,1,0,0,1,1,0
0.036917000,0,0,0,0,0,0,0,0,0,0,0,0
0.036925000,1,1,0,1,0,0,1,0,0,1,1,0
0.037000000,1,1,0,1,0,0,1,0,0,1,1,1
0.037500000,1,1,0,1,0,0,1,0,0,1,1,0
0.037917000,0,0,0,0,0,0,0,0,0,0,0,0
0.037925000,1,0,0,1,0,0,1,0,0,1,1,0
0.038000000,1,0,0,1,0,0,1,0,0,1,1,1
0.038500000,1,0,0,1,0,0,1,0,0,1,1,0
0.038917000,0,0,0,0,0,0,0,0,0,0,0,0
0.038925000,0,0,0,1,0,0,1,0,0,1,1,0
0.039000000,0,0,0,1,0,0,1,0,0,1,1,1
0.039500000,0,0,0,1,0,0,1,0,0,1,1,0
0.039917000,0,0,0,0,0,0,0,0,0,0,0,0
0.039925000,1,0,1,0,0,0,1,0,0,1,1,0
0.040000000,1,0,1,0,0,0,1,0,0,1,1,1
0.040500000,1,0,1,0,0,0,1,0,0,1,1,0
0.040917000,0,0,0,0,0,0,0,0,0,0,0,0
0.040925000,1,0,0,0,0,0,1,0,0,1,1,0
0.041000000,1,0,0,0,0,0,1,0,0,1,1,1
0.041500000,1,0,0,0,0,0,1,0,0,1,1,0
0.041917000,0,0,0,0,0,0,0,0,0,0,0,0
0.041925000,1,1,1,0,0,0,1,0,0,1,1,0
0.042000000,1,1,1,0,0,0,1,0,0,1,1,1
0.042500000,1,1,1,0,0,0,1,0,0,1,1,0
0.042917000,0,0,0,0,0,0,0,0,0,0,0,0
0.042925000,1,1,1,0,0,0,1,0,0,1,1,0
0.043000000,1,1,1,0,0,0,1,0,0,1,1,1
0.043500000,1,1,1,0,0,0,1,0,0,1,1,0
0.043917000,0,0,0,0,0,0,0,0,0,0,0,0
0.043925000,1,1,1,0,0,0,1,0,0,1,1,0
0.044000000,1,1,1,0,0,0,1,0,0,1,1,1
0.044500000,1,1,1,0,0,0,1,0,0,1,1,0
0.044917000,0,0,0,0,0,0,0,0,0,0,0,0
0.044925000,0,0,0,1,0,0,1,0,0,1,1,0
0.045000000,0,0,0,1,0,0,1,0,0,1,1,1
0.045500000,0,0,0,1,0,0,1,0,0,1,1,0
0.045917000,0,0,0,0,0,0,0,0,0,0,0,0
0.045925000,0,0,0,1,0,0,1,0,0,1,1,0
0.046000000,0,0,0,1,0,0,1,0,0,1,1,1
0.046500000,0,0,0,1,0,0,1,0,0,1,1,0
0.046917000,0,0,0,0,0,0,0,0,0,0,0,0
0.046925000,0,1,1,0,0,0,1,0,0,1,1,0
0.047000000,0,1,1,0,0,0,1,0,0,1,1,1
0.047500000,0,1,1,0,0,0,1,0,0,1,1,0
0.047917000,0,0,0,0,0,0,0,0,0,0,0,0
0.047925000,1,1,0,1,0,0,1,0,0,1,1,0
0.048000000,1,1,0,1,0,0,1,0,0,1,1,1
0.048500000,1,1,0,1,0,0,1,0,0,1,1,0
0.048917000,0,0,0,0,0,0,0,0,0,0,0,0
0.048925000,0,1,0,1,0,0,1,0,0,1,1,0
0.049000000,0,1,0,1,0,0,1,0,0,1,1,1
0.049500000,0,1,0,1,0,0,1,0,0,1,1,0
0.049917000,0,0,0,0,0,0,0,0,0,0,0,0
0.049925000,1,0,1,0,0,0,1,0,0,1,1,0
0.050000000,1,0,1,0,0,0,1,0,0,1,1,1
0.050500000,1,0,1,0,0,0,1,0,0,1,1,0
0.050917000,0,0,0,0,0,0,0,0,0,0,0,0
0.050925000,0,0,1,1,0,0,1,0,0,1,1,0
0.051000000,0,0,1,1,0,0,1,0,0,1,1,1
0.051500000,0,0,1,1,0,0,1,0,0,1,1,0
0.051917000,0,0,0,0,0,0,0,0,0,0,0,0
0.051925000,1,1,1,0,0,0,1,0,0,1,1,0
0.052000000,1,1,1,0,0,0,1,0,0,1,1,1
0.052500000,1,1,1,0,0,0,1,0,0,1,1,0
0.052917000,0,0,0,0,0,0,0,0,0,0,0,0
0.052925000,0,0,0,1,0,0,1,0,0,1,1,0
0.053000000,0,0,0,1,0,0,1,0,0,1,1,1
0.053500000,0,0,0,1,0,0,1,0,0,1,1,0
0.053917000,0,0,0,0,0,0,0,0,0,0,0,0
0.053925000,0,1,1,0,0,0,1,0,0,1,1,0
0.054000000,0,1,1,0,0,0,1,0,0,1,1,1
0.054500000,0,1,1,0,0,0,1,0,0,1,1,0
0.054917000,0,0,0,0,0,0,0,0,0,0,0,0
0.054925000,1,1,1,0,0,0,1,0,0,1,1,0
0.055000000,1,1,1,0,0,0,1,0,0,1,1,1
0.055500000,1,1,1,0,0,0,1,0,0,1,1,0
0.055917000,0,0,0,0,0,0,0,0,0,0,0,0
0.055925000,0,0,1,1,0,0,1,0,0,1,1,0
0.056000000,0,0,1,1,0,0,1,0,0,1,1,1
0.056500000,0,0,1,1,0,0,1,0,0,1,1,0
0.056917000,0,0,0,0,0,0,0,0,0,0,0,0
0.056925000,0,1,1,0,0,0,1,0,0,1,1,0
0.057000000,0,1,1,0,0,0,1,0,0,1,1,1
0.057500000,0,1,1,0,0,0,1,0,0,1,1,0
0.057917000,0,0,0,0,0,0,0,0,0,0,0,0
0.057925000,1,1,1,0,0,0,1,0,0,1,1,0
0.058000000,1,1,1,0,0,0,1,0,0,1,1,1
0.058500000,1,1,1,0,0,0,1,0,0,1,1,0
0.058917000,0,0,0,0,0,0,0,0,0,0,0,0
0.058925000,1,0,0,1,0,0,1,0,0,1,1,0
0.059000000,1,0,0,1,0,0,1,0,0,1,1,1
0.059500000,1,0,0,1,0,0,1,0,0,1,1,0
0.059917000,0,0,0,0,0,0,0,0,0,0,0,0
0.059925000,0,1,0,1,0,0,1,0,0,1,1,0
0.060000000,0,1,0,1,0,0,1,0,0,1,1,1
0.060500000,0,1,0,1,0,0,1,0,0,1,1,0
0.060917000,0,0,0,0,0,0,0,0,0,0,0,0
0.060925000,0,0,0,1,0,0,1,0,0,1,1,0
0.061000000,0,0,0,1,0,0,1,0,0,1,1,1
0.061500000,0,0,0,1,0,0,1,0,0,1,1,0
0.061917000,0,0,0,0,0,0,0,0,0,0,0,0
0.061925000,0,1,1,0,0,0,1,0,0,1,1,0
0.062000000,0,1,1,0,0,0,1,0,0,1,1,1
0.062500000,0,1,1,0,0,0,1,0,0,1,1,0
0.062917000,0,0,0,0,0,0,0,0,0,0,0,0
0.062925000,0,1,0,1,0,0,1,0,0,1,1,0
0.063000000,0,1,0,1,0,0,1,0,0,1,1,1
0.063500000,0,1,0,1,0,0,1,0,0,1,1,0
0.063917000,0,0,0,0,0,0,0,0,0,0,0,0
0.063925000,0,0,1,1,0,0,1,0,0,1,1,0
0.064000000,0,0,1,1,0,0,1,0,0,1,1,1
0.064500000,0,0,1,1,0,0,1,0,0,1,1,0
0.064917000,0,0,0,0,0,0,0,0,0,0,0,0
0.064925000,1,0,0,0,0,0,1,0,0,1,1,0
0.065000000,1,0,0,0,0,0,1,0,0,1,1,1
0.065500000,1,0,0,0,0,0,1,0,0,1,1,0
0.065917000,0,0,0,0,0,0,0,0,0,0,0,0
0.065925000,1,1,1,0,0,0,1,0,0,1,1,0
0.066000000,1,1,1,0,0,0,1,0,0,1,1,1
0.066500000,1,1,1,0,0,0,1,0,0,1,1,0
0.066917000,0,0,0,0,0,0,0,0,0,0,0,0
0.066925000,0,0,0,1,0,0,1,0,0,1,1,0
0.067000000,0,0,0,1,0,0,1,0,0,1,1,1
0.067500000,0,0,0,1,0,0,1,0,0,1,1,0
0.067917000,0,0,0,0,0,0,0,0,0,0,0,0
0.067925000,1,1,1,0,0,0,1,0,0,1,1,0
0.068000000,1,1,1,0,0,0,1,0,0,1,1,1
0.068500000,1,1,1,0,0,0,1,0,0,1,1,0
0.068917000,0,0,0,0,0,0,0,0,0,0,0,0
0.068925000,1,1,1,0,0,0,1,0,0,1,1,0
0.069000000,1,1,1,0,0,0,1,0,0,1,1,1
0.069500000,1,1,1,0,0,0,1,0,0,1,1,0
0.069917000,0,0,0,0,0,0,0,0,0,0,0,0
0.069925000,0,1,0,1,0,0,1,0,0,1,1,0
0.070000000,0,1,0,1,0,0,1,0,0,1,1,1
0.070500000,0,1,0,1,0,0,1,0,0,1,1,0
0.070917000,0,0,0,0,0,0,0,0,0,0,0,0
0.070925000,1,0,1,0,0,0,1,0,0,1,1,0
0.071000000,1,0,1,0,0,0,1,0,0,1,1,1
0.071500000,1,0,1,0,0,0,1,0,0,1,1,0
0.071917000,0,0,0,0,0,0,0,0,0,0,0,0
0.071925000,1,1,1,0,0,0,1,0,0,1,1,0
0.072000000,1,1,1,0,0,0,1,0,0,1,1,1
0.072500000,1,1,1,0,0,0,1,0,0,1,1,0
0.072917000,0,0,0,0,0,0,0,0,0,0,0,0
0.072925000,0,0,0,1,0,0,1,0,0,1,1,0
0.073000000,0,0,0,1,0,0,1,0,0,1,1,1
0.073500000,0,0,0,1,0,0,1,0,0,1,1,0
0.073917000,0,0,0,0,0,0,0,0,0,0,0,0
0.073925000,0,0,0,1,0,0,1,0,0,1,1,0
0.074000000,0,0,0,1,0,0,1,0,0,1,1,1
0.074500000,0,0,0,1,0,0,1,0,0,1,1,0
0.074917000,0,0,0,0,0,0,0,0,0,0,0,0
0.074925000,0,1,1,0,0,0,1,0,0,1,1,0
0.075000000,0,1,1,0,0,0,1,0,0,1,1,1
0.075500000,0,1,1,0,0,0,1,0,0,1,1,0
0.075917000,0,0,0,0,0,0,0,0,0,0,0,0
0.075925000,0,1,0,1,0,0,1,0,0,1,1,0
0.076000000,0,1,0,1,0,0,1,0,0,1,1,1
0.076500000,0,1,0,1,0,0,1,0,0,1,1,0
0.076917000,0,0,0,0,0,0,0,0,0,0,0,0
0.076925000,1,1,1,0,0,0,1,0,0,1,1,0
0.077000000,1,1,1,0,0,0,1,0,0,1,1,1
0.077500000,1,1,1,0,0,0,1,0,0,1,1,0
0.077917000,0,0,0,0,0,0,0,0,0,0,0,0
0.077925000,1,0,1,0,0,0,1,0,0,1,1,0
0.078000000,1,0,1,0,0,0,1,0,0,1,1,1
0.078500000,1,0,1,0,0,0,1,0,0,1,1,0
0.078917000,0,0,0,0,0,0,0,0,0,0,0,0
0.078925000,1,0,1,1,0,0,1,0,0,1,1,0
0.079000000,1,0,1,1,0,0,1,0,0,1,1,1
0.079500000,1,0,1,1,0,0,1,0,0,1,1,0
0.079917000,0,0,0,0,0,0,0,0,0,0,0,0
0.079925000,1,1,1,0,0,0,1,0,0,1,1,0
0.080000000,1,1,1,0,0,0,1,0,0,1,1,1
0.080500000,1,1,1,0,0,0,1,0,0,1,1,0
0.080917000,0,0,0,0,0,0,0,0,0,0,0,0
0.080925000,0,1,1,1,0,0,1,0,0,1,1,0
0.081000000,0,1,1,1,0,0,1,0,0,1,1,1
0.081500000,0,1,1,1,0,0,1,0,0,1,1,0
0.081917000,0,0,0,0,0,0,0,0,0,0,0,0
0.081925000,1,1,1,0,0,0,1,0,0,1,1,0
0.082000000,1,1,1,0,0,0,1,0,0,1,1,1
0.082500000,1,1,1,0,0,0,1,0,0,1,1,0
0.082917000,0,0,0,0,0,0,0,0,0,0,0,0
0.082925000,0,0,0,1,0,0,1,0,0,1,1,0
0.083000000,0,0,0,1,0,0,1,0,0,1,1,1
0.083500000,0,0,0,1,0,0,1,0,0,1,1,0
0.083917000,0,0,0,0,0,0,0,0,0,0,0,0
0.083925000,0,0,0,1,0,0,1,0,0,1,1,0
0.084000000,0,0,0,1,0,0,1,0,0,1,1,1
0.084500000,0,0,0,1,0,0,1,0,0,1,1,0
0.084917000,0,0,0,0,0,0,0,0,0,0,0,0
0.084925000,1,1,1,0,0,0,1,0,0,1,1,0
0.085000000,1,1,1,0,0,0,1,0,0,1,1,1
0.085500000,1,1,1,0,0,0,1,0,0,1,1,0
0.085917000,0,0,0,0,0,0,0,0,0,0,0,0
0.085925000,1,1,0,1,0,0,1,0,0,1,1,0
0.086000000,1,1,0,1,0,0,1,0,0,1,1,1
0.086500000,1,1,0,1,0,0,1,0,0,1,1,0
0.086916000,1,1,0,1,0,0,1,0,0,1,0,0
0.086917000,0,0,0,0,0,0,0,0,0,0,0,0
0.086925000,1,1,1,0,0,0,1,0,0,1,1,0
0.087000000,1,1,1,0,0,0,1,0,0,1,1,1
0.087500000,1,1,1,0,0,0,1,0,0,1,1,0
0.087916000,1,1,1,0,0,0,1,0,0,1,0,0
0.087917000,0,0,0,0,0,0,0,0,0,0,0,0
0.087925000,1,1,1,0,0,0,1,0,0,1,1,0
0.088000000,1,1,1,0,0,0,1,0,0,1,1,1
0.088500000,1,1,1,0,0,0,1,0,0,1,1,0
0.088916000,1,1,1,0,0,0,1,0,0,1,0,0
0.088917000,0,0,0,0,0,0,0,0,0,0,0,0
0.088925000,1,1,1,0,0,0,1,0,0,1,1,0
0.089000000,1,1,1,0,0,0,1,0,0,1,1,1
0.089500000,1,1,1,0,0,0,1,0,0,1,1,0
0.089916000,1,1,1,0,0,0,1,0,0,1,0,0
0.089917000,0,0,0,0,0,0,0,0,0,0,0,0
0.089925000,1,1,0,0,0,0,1,0,0,1,1,0
0.090000000,1,1,0,0,0,0,1,0,0,1,1,1
0.090500000,1,1,0,0,0,0,1,0,0,1,1,0
0.090916000,1,1,0,0,0,0,1,0,0,0,0,0
0.090917000,0,0,0,0,0,0,0,0,0,0,0,0
0.090925000,0,0,1,0,0,0,1,0,0,1,1,0
0.091000000,0,0,1,0,0,0,1,0,0,1,1,1
0.091500000,0,0,1,0,0,0,1,0,0,1,1,0
0.091916000,0,0,0,0,0,0,1,0,0,0,0,0
0.091917000,0,0,0,0,0,0,0,0,0,0,0,0
0.091925000,1,0,1,0,0,0,1,0,0,1,1,0
0.092000000,1,0,1,0,0,0,1,0,0,1,1,1
0.092500000,1,0,1,0,0,0,1,0,0,1,1,0
0.092916000,0,0,0,0,0,0,0,0,0,0,0,0
0.092925000,1,0,0,1,0,0,1,0,0,1,1,0
0.093000000,1,0,0,1,0,0,1,0,0,1,1,1
0.093500000,1,0,0,1,0,0,1,0,0,1,1,0
0.093916000,0,0,0,0,0,0,0,0,0,0,0,0
0.093925000,0,1,0,1,0,0,1,0,0,1,1,0
0.094000000,0,1,0,1,0,0,1,0,0,1,1,1
0.094500000,0,1,0,1,0,0,1,0,0,1,1,0
0.094916000,0,0,0,0,0,0,0,0,0,0,0,0
0.094925000,0,1,1,0,0,0,1,0,0,1,1,0
0.095000000,0,1,1,0,0,0,1,0,0,1,1,1
0.095500000,0,1,1,0,0,0,1,0,0,1,1,0
0.095916000,0,0,0,0,0,0,0,0,0,0,0,0
0.095925000,1,0,1,0,0,0,1,0,0,1,1,0
0.096000000,1,0,1,0,0,0,1,0,0,1,1,1
0.096500000,1,0,1,0,0,0,1,0,0,1,1,0
0.096916000,0,0,0,0,0,0,0,0,0,0,0,0
0.096925000,0,0,1,0,0,0,1,0,0,1,1,0
0.097000000,0,0,1,0,0,0,1,0,0,1,1,1
0.097500000,0,0,1,0,0,0,1,0,0,1,1,0
0.097916000,0,0,0,0,0,0,0,0,0,0,0,0
0.097925000,0,1,1,0,0,0,1,0,0,1,1,0
0.098000000,0,1,1,0,0,0,1,0,0,1,1,1
0.098500000,0,1,1,0,0,0,1,0,0,1,1,0
0.098916000,0,0,0,0,0,0,0,0,0,0,0,0
0.098925000,0,1,0,1,0,0,1,0,0,1,1,0
0.099000000,0,1,0,1,0,0,1,0,0,1,1,1
0.099500000,0,1,0,1,0,0,1,0,0,1,1,0
0.099916000,0,0,0,0,0,0,0,0,0,0,0,0
0.099925000,1,0,0,1,0,0,1,0,0,1,1,0
0.100000000,1,0,0,1,0,0,1,0,0,1,1,1
0.100500000,1,0,0,1,0,0,1,0,0,1,1,0
0.100916000,0,0,0,0,0,0,0,0,0,0,0,0
0.100925000,0,0,0,1,0,0,1,0,0,1,1,0
0.101000000,0,0,0,1,0,0,1,0,0,1,1,1
0.101500000,0,0,0,1,0,0,1,0,0,1,1,0
0.101916000,0,0,0,0,0,0,0,0,0,0,0,0
0.101925000,1,1,1,0,0,0,1,0,0,1,1,0
0.102000000,1,1,1,0,0,0,1,0,0,1,1,1
0.102500000,1,1,1,0,0,0,1,0,0,1,1,0
0.102916000,0,0,0,0,0,0,0,0,0,0,0,0
0.102925000,0,0,1,0,0,0,1,0,0,1,1,0
0.103000000,0,0,1,0,0,0,1,0,0,1,1,1
0.103500000,0,0,1,0,0,0,1,0,0,1,1,0
0.103916000,0,0,0,0,0,0,0,0,0,0,0,0
0.103925000,1,0,0,1,0,0,1,0,0,1,1,0
0.104000000,1,0,0,1,0,0,1,0,0,1,1,1
0.104500000,1,0,0,1,0,0,1,0,0,1,1,0
0.104916000,0,0,0,0,0,0,0,0,0,0,0,0
0.104925000,0,0,1,0,0,0,1,0,0,1,1,0
0.105000000,0,0,1,0,0,0,1,0,0,1,1,1
0.105500000,0,0,1,0,0,0,1,0,0,1,1,0
0.105916000,0,0,0,0,0,0,0,0,0,0,0,0
0.105925000,0,1,0,1,0,0,1,0,0,1,1,0
0.106000000,0,1,0,1,0,0,1,0,0,1,1,1
0.106500000,0,1,0,1,0,0,1,0,0,1,1,0
0.106916000,0,0,0,0,0,0,0,0,0,0,0,0
0.106925000,0,1,1,0,0,0,1,0,0,1,1,0
0.107000000,0,1,1,0,0,0,1,0,0,1,1,1
0.107500000,0,1,1,0,0,0,1,0,0,1,1,0
0.107916000,0,0,0,0,0,0,0,0,0,0,0,0
0.107925000,0,0,0,1,0,0,1,0,0,1,1,0
0.108000000,0,0,0,1,0,0,1,0,0,1,1,1
0.108500000,0,0,0,1,0,0,1,0,0,1,1,0
0.108916000,0,0,0,0,0,0,0,0,0,0,0,0
0.108925000,0,0,1,1,0,0,1,0,0,1,1,0
0.109000000,0,0,1,1,0,0,1,0,0,1,1,1
0.109500000,0,0,1,1,0,0,1,0,0,1,1,0
0.109916000,0,0,0,0,0,0,0,0,0,0,0,0
0.109925000,1,0,0,1,0,0,1,0,0,1,1,0
0.110000000,1,0,0,1,0,0,1,0,0,1,1,1
0.110500000,1,0,0,1,0,0,1,0,0,1,1,0
0.110916000,0,0,0,0,0,0,0,0,0,0,0,0
0.110925000,0,1,0,1,0,0,1,0,0,1,1,0
0.111000000,0,1,0,1,0,0,1,0,0,1,1,1
0.111500000,0,1,0,1,0,0,1,0,0,1,1,0
0.111916000,0,0,0,0,0,0,0,0,0,0,0,0
0.111925000,1,0,0,1,0,0,1,0,0,1,1,0
0.112000000,1,0,0,1,0,0,1,0,0,1,1,1
0.112500000,1,0,0,1,0,0,1,0,0,1,1,0
0.112916000,0,0,0,0,0,0,0,0,0,0,0,0
0.112925000,1,0,0,1,0,0,1,0,0,1,1,0
0.113000000,1,0,0,1,0,0,1,0,0,1,1,1
0.113500000,1,0,0,1,0,0,1,0,0,1,1,0
0.113916000,0,0,0,0,0,0,0,0,0,0,0,0
0.113925000,1,1,1,0,0,0,1,0,0,1,1,0
0.114000000,1,1,1,0,0,0,1,0,0,1,1,1
0.114500000,1,1,1,0,0,0,1,0,0,1,1,0
0.114916000,0,0,0,0,0,0,0,0,0,0,0,0
0.114925000,0,0,1,1,0,0,1,0,0,1,1,0
0.115000000,0,0,1,1,0,0,1,0,0,1,1,1
0.115500000,0,0,1,1,0,0,1,0,0,1,1,0
0.115916000,0,0,0,0,0,0,0,0,0,0,0,0
0.115925000,0,0,0,1,0,0,1,0,0,1,1,0
0.116000000,0,0,0,1,0,0,1,0,0,1,1,1
0.116500000,0,0,0,1,0,0,1,0,0,1,1,0
0.116916000,0,0,0,0,0,0,0,0,0,0,0,0
0.116925000,0,1,0,1,0,0,1,0,0,1,1,0
0.117000000,0,1,0,1,0,0,1,0,0,1,1,1
0.117500000,0,1,0,1,0,0,1,0,0,1,1,0
0.117916000,0,0,0,0,0,0,0,0,0,0,0,0
0.117925000,1,1,1,0,0,0,1,0,0,1,1,0
0.118000000,1,1,1,0,0,0,1,0,0,1,1,1
0.118500000,1,1,1,0,0,0,1,0,0,1,1,0
0.118916000,0,0,0,0,0,0,0,0,0,0,0,0
0.118925000,0,0,0,1,0,0,1,0,0,1,1,0
0.119000000,0,0,0,1,0,0,1,0,0,1,1,1
0.119500000,0,0,0,1,0,0,1,0,0,1,1,0
0.119916000,0,0,0,0,0,0,0,0,0,0,0,0
0.119925000,0,0,0,1,0,0,1,0,0,1,1,0
0.120000000,0,0,0,1,0,0,1,0,0,1,1,1
0.120500000,0,0,0,1,0,0,1,0,0,1,1,0
0.120916000,0,0,0,0,0,0,0,0,0,0,0,0
0.120925000,1,1,1,0,0,0,1,0,0,1,1,0
0.121000000,1,1,1,0,0,0,1,0,0,1,1,1
0.121500000,1,1,1,0,0,0,1,0,0,1,1,0
0.121916000,0,0,0,0,0,0,0,0,0,0,0,0
0.121925000,0,1,0,1,0,0,1,0,0,1,1,0
0.122000000,0,1,0,1,0,0,1,0,0,1,1,1
0.122500000,0,1,0,1,0,0,1,0,0,1,1,0
0.122916000,0,0,0,0,0,0,0,0,0,0,0,0
0.122925000,1,1,1,0,0,0,1,0,0,1,1,0
0.123000000,1,1,1,0,0,0,1,0,0,1,1,1
0.123500000,1,1,1,0,0,0,1,0,0,1,1,0
0.123916000,0,0,0,0,0,0,0,0,0,0,0,0
0.123925000,0,1,1,0,0,0,1,0,0,1,1,0
0.124000000,0,1,1,0,0,0,1,0,0,1,1,1
0.124500000,0,1,1,0,0,0,1,0,0,1,1,0
0.124916000,0,0,0,0,0,0,0,0,0,0,0,0
0.124925000,1,0,1,0,0,0,1,0,0,1,1,0
0.125000000,1,0,1,0,0,0,1,0,0,1,1,1
0.125500000,1,0,1,0,0,0,1,0,0,1,1,0
0.125916000,0,0,0,0,0,0,0,0,0,0,0,0
0.125925000,0,0,1,0,0,0,1,0,0,1,1,0
0.126000000,0,0,1,0,0,0,1,0,0,1,1,1
0.126500000,0,0,1,0,0,0,1,0,0,1,1,0
0.126916000,0,0,0,0,0,0,0,0,0,0,0,0
0.126925000,1,0,1,1,0,0,1,0,0,1,1,0
0.127000000,1,0,1,1,0,0,1,0,0,1,1,1
0.127500000,1,0,1,1,0,0,1,0,0,1,1,0
0.127916000,0,0,0,0,0,0,0,0,0,0,0,0
0.127925000,0,1,1,0,0,0,1,0,0,1,1,0
0.128000000,0,1,1,0,0,0,1,0,0,1,1,1
0.128500000,0,1,1,0,0,0,1,0,0,1,1,0
0.128916000,0,0,0,0,0,0,0,0,0,0,0,0
0.128925000,0,1,0,1,0,0,1,0,0,1,1,0
0.129000000,0,1,0,1,0,0,1,0,0,1,1,1
0.129500000,0,1,0,1,0,0,1,0,0,1,1,0
0.129916000,0,0,0,0,0,0,0,0,0,0,0,0
0.129924000,0,0,0,0,0,0,1,0,0,1,1,0
0.129925000,0,1,1,0,0,0,1,0,0,1,1,0
0.129999000,0,1,1,0,0,0,1,0,0,1,1,1
0.130499000,0,1,1,0,0,0,1,0,0,1,1,0
0.130916000,0,0,0,0,0,0,0,0,0,0,0,0
0.130924000,0,0,0,1,0,0,1,0,0,1,1,0
0.130999000,0,0,0,1,0,0,1,0,0,1,1,1
0.131499000,0,0,0,1,0,0,1,0,0,1,1,0
0.131916000,0,0,0,0,0,0,0,0,0,0,0,0
0.131924000,0,0,1,0,0,0,1,0,0,1,0,0
0.131925000,0,1,1,0,0,0,1,0,0,1,1,0
0.131999000,0,1,1,0,0,0,1,0,0,1,1,1
0.132499000,0,1,1,0,0,0,1,0,0,1,1,0
0.132916000,0,0,0,0,0,0,0,0,0,0,0,0
0.132924000,0,0,0,0,0,0,0,0,0,1,0,0
0.132925000,0,1,0,1,0,0,1,0,0,1,1,0
0.132999000,0,1,0,1,0,0,1,0,0,1,1,1
0.133499000,0,1,0,1,0,0,1,0,0,1,1,0
0.133916000,0,0,0,0,0,0,0,0,0,0,0,0
