Time [s],Channel 0,Channel 1,Channel 2,Channel 3,Channel 4,Channel 5,Channel 6,Channel 7,Channel 8,Channel 9,Channel 10,Channel 11
-0.000026000,1,1,1,0,0,1,1,0,0,0,1,0
0.000000000,1,1,1,0,0,1,1,0,0,0,1,1
0.000500000,1,1,1,0,0,1,1,0,0,0,1,0
0.000916000,0,0,0,0,0,0,0,0,0,0,0,0
0.000929000,1,0,1,0,0,1,1,0,0,0,1,0
0.001000000,1,0,1,0,0,1,1,0,0,0,1,1
0.001500000,1,0,1,0,0,1,1,0,0,0,1,0
0.001916000,0,0,0,0,0,0,0,0,0,0,0,0
0.001929000,1,0,0,0,0,1,1,0,0,0,1,0
0.002000000,1,0,0,0,0,1,1,0,0,0,1,1
0.002500000,1,0,0,0,0,1,1,0,0,0,1,0
0.002916000,0,0,0,0,0,0,0,0,0,0,0,0
0.002929000,0,0,1,0,0,1,1,0,0,0,1,0
0.003000000,0,0,1,0,0,1,1,0,0,0,1,1
0.003500000,0,0,1,0,0,1,1,0,0,0,1,0
0.003916000,0,0,0,0,0,0,0,0,0,0,0,0
0.003929000,0,1,0,1,1,0,1,0,0,0,1,0
0.004000000,0,1,0,1,1,0,1,0,0,0,1,1
0.004500000,0,1,0,1,1,0,1,0,0,0,1,0
0.004916000,0,0,0,0,0,0,0,0,0,0,0,0
0.004929000,0,0,0,1,0,1,1,0,0,0,1,0
0.005000000,0,0,0,1,0,1,1,0,0,0,1,1
0.005500000,0,0,0,1,0,1,1,0,0,0,1,0
0.005916000,0,0,0,0,0,0,0,0,0,0,0,0
0.005929000,0,0,0,1,0,1,1,0,0,0,1,0
0.006000000,0,0,0,1,0,1,1,0,0,0,1,1
0.006500000,0,0,0,1,0,1,1,0,0,0,1,0
0.006916000,0,0,0,0,0,0,0,0,0,0,0,0
0.006929000,0,0,0,1,0,1,1,0,0,0,1,0
0.007000000,0,0,0,1,0,1,1,0,0,0,1,1
0.007500000,0,0,0,1,0,1,1,0,0,0,1,0
0.007916000,0,0,0,0,0,0,0,0,0,0,0,0
0.007929000,0,1,0,0,0,1,1,0,0,0,1,0
0.008000000,0,1,0,0,0,1,1,0,0,0,1,1
0.008500000,0,1,0,0,0,1,1,0,0,0,1,0
0.008916000,0,0,0,0,0,0,0,0,0,0,0,0
0.008929000,1,1,1,1,1,0,1,0,0,0,1,0
0.009000000,1,1,1,1,1,0,1,0,0,0,1,1
0.009500000,1,1,1,1,1,0,1,0,0,0,1,0
0.009916000,0,0,0,0,0,0,0,0,0,0,0,0
0.009929000,0,0,0,0,0,1,1,0,0,0,1,0
0.010000000,0,0,0,0,0,1,1,0,0,0,1,1
0.010500000,0,0,0,0,0,1,1,0,0,0,1,0
0.010916000,0,0,0,0,0,0,0,0,0,0,0,0
0.010929000,1,1,0,0,0,1,1,0,0,0,1,0
0.011000000,1,1,0,0,0,1,1,0,0,0,1,1
0.011500000,1,1,0,0,0,1,1,0,0,0,1,0
0.011916000,0,0,0,0,0,0,0,0,0,0,0,0
0.011929000,1,1,0,0,0,1,1,0,0,0,1,0
0.012000000,1,1,0,0,0,1,1,0,0,0,1,1
0.012500000,1,1,0,0,0,1,1,0,0,0,1,0
0.012916000,0,0,0,0,0,0,0,0,0,0,0,0
0.012929000,0,1,1,0,0,1,1,0,0,0,1,0
0.013000000,0,1,1,0,0,1,1,0,0,0,1,1
0.013500000,0,1,1,0,0,1,1,0,0,0,1,0
0.013916000,0,0,0,0,0,0,0,0,0,0,0,0
0.013929000,0,0,0,0,0,1,1,0,0,0,1,0
0.014000000,0,0,0,0,0,1,1,0,0,0,1,1
0.014500000,0,0,0,0,0,1,1,0,0,0,1,0
0.014916000,0,0,0,0,0,0,0,0,0,0,0,0
0.014929000,1,1,1,1,1,0,1,0,0,0,1,0
0.015000000,1,1,1,1,1,0,1,0,0,0,1,1
0.015500000,1,1,1,1,1,0,1,0,0,0,1,0
0.015916000,0,0,0,0,0,0,0,0,0,0,0,0
0.015929000,0,1,1,0,0,1,1,0,0,0,1,0
0.016000000,0,1,1,0,0,1,1,0,0,0,1,1
0.016500000,0,1,1,0,0,1,1,0,0,0,1,0
0.016916000,0,0,0,0,0,0,0,0,0,0,0,0
0.016929000,1,0,0,0,0,1,1,0,0,0,1,0
0.017000000,1,0,0,0,0,1,1,0,0,0,1,1
0.017500000,1,0,0,0,0,1,1,0,0,0,1,0
0.017916000,0,0,0,0,0,0,0,0,0,0,0,0
0.017929000,1,0,1,1,1,0,1,0,0,0,1,0
0.018000000,1,0,1,1,1,0,1,0,0,0,1,1
0.018500000,1,0,1,1,1,0,1,0,0,0,1,0
0.018916000,0,0,0,0,0,0,0,0,0,0,0,0
0.018929000,1,1,1,0,0,1,1,0,0,0,1,0
0.019000000,1,1,1,0,0,1,1,0,0,0,1,1
0.019500000,1,1,1,0,0,1,1,0,0,0,1,0
0.019916000,0,0,0,0,0,0,0,0,0,0,0,0
0.019929000,1,0,0,0,0,1,1,0,0,0,1,0
0.020000000,1,0,0,0,0,1,1,0,0,0,1,1
0.020500000,1,0,0,0,0,1,1,0,0,0,1,0
0.020916000,0,0,0,0,0,0,0,0,0,0,0,0
0.020929000,1,1,1,0,0,1,1,0,0,0,1,0
0.021000000,1,1,1,0,0,1,1,0,0,0,1,1
0.021500000,1,1,1,0,0,1,1,0,0,0,1,0
0.021916000,0,0,0,0,0,0,0,0,0,0,0,0
0.021929000,1,0,1,0,0,1,1,0,0,0,1,0
0.022000000,1,0,1,0,0,1,1,0,0,0,1,1
0.022500000,1,0,1,0,0,1,1,0,0,0,1,0
0.022916000,0,0,0,0,0,0,0,0,0,0,0,0
0.022929000,1,1,1,0,0,1,1,0,0,0,1,0
0.023000000,1,1,1,0,0,1,1,0,0,0,1,1
0.023500000,1,1,1,0,0,1,1,0,0,0,1,0
0.023916000,0,0,0,0,0,0,0,0,0,0,0,0
0.023929000,0,0,0,1,0,1,1,0,0,0,1,0
0.024000000,0,0,0,1,0,1,1,0,0,0,1,1
0.024500000,0,0,0,1,0,1,1,0,0,0,1,0
0.024916000,0,0,0,0,0,0,0,0,0,0,0,0
0.024929000,1,1,1,0,0,1,1,0,0,0,1,0
0.025000000,1,1,1,0,0,1,1,0,0,0,1,1
0.025500000,1,1,1,0,0,1,1,0,0,0,1,0
0.025916000,0,0,0,0,0,0,0,0,0,0,0,0
0.025929000,1,1,0,0,0,1,1,0,0,0,1,0
0.025999000,1,1,0,0,0,1,1,0,0,0,1,1
0.026499000,1,1,0,0,0,1,1,0,0,0,1,0
0.026916000,0,0,0,0,0,0,0,0,0,0,0,0
0.026929000,1,1,1,1,1,0,1,0,0,0,1,0
0.026999000,1,1,1,1,1,0,1,0,0,0,1,1
0.027499000,1,1,1,1,1,0,1,0,0,0,1,0
0.027916000,0,0,0,0,0,0,0,0,0,0,0,0
0.027929000,0,0,0,0,0,1,1,0,0,0,1,0
0.027999000,0,0,0,0,0,1,1,0,0,0,1,1
0.028499000,0,0,0,0,0,1,1,0,0,0,1,0
0.028916000,0,0,0,0,0,0,0,0,0,0,0,0
0.028929000,1,0,0,1,0,1,1,0,0,0,1,0
0.028999000,1,0,0,1,0,1,1,0,0,0,1,1
0.029499000,1,0,0,1,0,1,1,0,0,0,1,0
0.029916000,0,0,0,0,0,0,0,0,0,0,0,0
0.029929000,0,1,0,0,0,1,1,0,0,0,1,0
0.029999000,0,1,0,0,0,1,1,0,0,0,1,1
0.030499000,0,1,0,0,0,1,1,0,0,0,1,0
0.030916000,0,0,0,0,0,0,0,0,0,0,0,0
0.030929000,1,1,0,1,1,0,1,0,0,0,1,0
0.030999000,1,1,0,1,1,0,1,0,0,0,1,1
0.031499000,1,1,0,1,1,0,1,0,0,0,1,0
0.031916000,0,0,0,0,0,0,0,0,0,0,0,0
0.031929000,0,1,1,0,0,1,1,0,0,0,1,0
0.031999000,0,1,1,0,0,1,1,0,0,0,1,1
0.032499000,0,1,1,0,0,1,1,0,0,0,1,0
0.032916000,0,0,0,0,0,0,0,0,0,0,0,0
0.032929000,0,0,1,0,0,1,1,0,0,0,1,0
0.032999000,0,0,1,0,0,1,1,0,0,0,1,1
0.033499000,0,0,1,0,0,1,1,0,0,0,1,0
0.033916000,0,0,0,0,0,0,0,0,0,0,0,0
0.033929000,1,1,1,0,0,1,1,0,0,0,1,0
0.033999000,1,1,1,0,0,1,1,0,0,0,1,1
0.034499000,1,1,1,0,0,1,1,0,0,0,1,0
0.034916000,0,0,0,0,0,0,0,0,0,0,0,0
0.034929000,1,1,1,0,0,1,1,0,0,0,1,0
0.034999000,1,1,1,0,0,1,1,0,0,0,1,1
0.035499000,1,1,1,0,0,1,1,0,0,0,1,0
0.035916000,0,0,0,0,0,0,0,0,0,0,0,0
0.035929000,0,0,1,0,0,1,1,0,0,0,1,0
0.035999000,0,0,1,0,0,1,1,0,0,0,1,1
0.036499000,0,0,1,0,0,1,1,0,0,0,1,0
0.036916000,0,0,0,0,0,0,0,0,0,0,0,0
0.036929000,1,1,1,0,0,1,1,0,0,0,1,0
0.036999000,1,1,1,0,0,1,1,0,0,0,1,1
0.037499000,1,1,1,0,0,1,1,0,0,0,1,0
0.037916000,0,0,0,0,0,0,0,0,0,0,0,0
0.037929000,1,1,1,0,0,1,1,0,0,0,1,0
0.037999000,1,1,1,0,0,1,1,0,0,0,1,1
0.038499000,1,1,1,0,0,1,1,0,0,0,1,0
0.038916000,0,0,0,0,0,0,0,0,0,0,0,0
0.038929000,0,0,1,0,0,1,1,0,0,0,1,0
0.038999000,0,0,1,0,0,1,1,0,0,0,1,1
0.039499000,0,0,1,0,0,1,1,0,0,0,1,0
0.039916000,0,0,0,0,0,0,0,0,0,0,0,0
0.039929000,0,0,1,0,0,1,1,0,0,0,1,0
0.039999000,0,0,1,0,0,1,1,0,0,0,1,1
0.040499000,0,0,1,0,0,1,1,0,0,0,1,0
0.040916000,0,0,0,0,0,0,0,0,0,0,0,0
0.040929000,1,1,0,0,0,1,1,0,0,0,1,0
0.040999000,1,1,0,0,0,1,1,0,0,0,1,1
0.041499000,1,1,0,0,0,1,1,0,0,0,1,0
0.041916000,0,0,0,0,0,0,0,0,0,0,0,0
0.041929000,1,0,1,0,0,1,1,0,0,0,1,0
0.041999000,1,0,1,0,0,1,1,0,0,0,1,1
0.042499000,1,0,1,0,0,1,1,0,0,0,1,0
0.042916000,0,0,0,0,0,0,0,0,0,0,0,0
0.042929000,0,0,1,0,0,1,1,0,0,0,1,0
0.042999000,0,0,1,0,0,1,1,0,0,0,1,1
0.043499000,0,0,1,0,0,1,1,0,0,0,1,0
0.043916000,0,0,0,0,0,0,0,0,0,0,0,0
0.043929000,1,1,1,1,1,0,1,0,0,0,1,0
0.043999000,1,1,1,1,1,0,1,0,0,0,1,1
0.044499000,1,1,1,1,1,0,1,0,0,0,1,0
0.044916000,0,0,0,0,0,0,0,0,0,0,0,0
0.044929000,1,0,0,1,0,1,1,0,0,0,1,0
0.044999000,1,0,0,1,0,1,1,0,0,0,1,1
0.045499000,1,0,0,1,0,1,1,0,0,0,1,0
0.045916000,0,0,0,0,0,0,0,0,0,0,0,0
0.045929000,0,1,1,0,0,1,1,0,0,0,1,0
0.045999000,0,1,1,0,0,1,1,0,0,0,1,1
0.046499000,0,1,1,0,0,1,1,0,0,0,1,0
0.046916000,0,0,0,0,0,0,0,0,0,0,0,0
0.046929000,1,1,1,0,0,1,1,0,0,0,1,0
0.046999000,1,1,1,0,0,1,1,0,0,0,1,1
0.047499000,1,1,1,0,0,1,1,0,0,0,1,0
0.047916000,0,0,0,0,0,0,0,0,0,0,0,0
0.047929000,0,0,0,1,0,1,1,0,0,0,1,0
0.047999000,0,0,0,1,0,1,1,0,0,0,1,1
0.048499000,0,0,0,1,0,1,1,0,0,0,1,0
0.048916000,0,0,0,0,0,0,0,0,0,0,0,0
0.048929000,1,1,0,0,0,1,1,0,0,0,1,0
0.048999000,1,1,0,0,0,1,1,0,0,0,1,1
0.049499000,1,1,0,0,0,1,1,0,0,0,1,0
0.049916000,0,0,0,0,0,0,0,0,0,0,0,0
0.049929000,1,1,1,0,0,1,1,0,0,0,1,0
0.049999000,1,1,1,0,0,1,1,0,0,0,1,1
0.050499000,1,1,1,0,0,1,1,0,0,0,1,0
0.050916000,0,0,0,0,0,0,0,0,0,0,0,0
0.050929000,1,1,0,0,0,1,1,0,0,0,1,0
0.050999000,1,1,0,0,0,1,1,0,0,0,1,1
0.051499000,1,1,0,0,0,1,1,0,0,0,1,0
0.051916000,0,0,0,0,0,0,0,0,0,0,0,0
0.051929000,0,1,0,0,0,1,1,0,0,0,1,0
0.051999000,0,1,0,0,0,1,1,0,0,0,1,1
0.052499000,0,1,0,0,0,1,1,0,0,0,1,0
0.052916000,0,0,0,0,0,0,0,0,0,0,0,0
0.052929000,1,1,1,0,0,1,1,0,0,0,1,0
0.052999000,1,1,1,0,0,1,1,0,0,0,1,1
0.053499000,1,1,1,0,0,1,1,0,0,0,1,0
0.053916000,0,0,0,0,0,0,0,0,0,0,0,0
0.053929000,1,1,1,0,0,1,1,0,0,0,1,0
0.053999000,1,1,1,0,0,1,1,0,0,0,1,1
0.054499000,1,1,1,0,0,1,1,0,0,0,1,0
0.054916000,0,0,0,0,0,0,0,0,0,0,0,0
0.054929000,1,1,1,0,0,1,1,0,0,0,1,0
0.054999000,1,1,1,0,0,1,1,0,0,0,1,1
0.055499000,1,1,1,0,0,1,1,0,0,0,1,0
0.055916000,0,0,0,0,0,0,0,0,0,0,0,0
0.055929000,0,1,1,0,0,1,1,0,0,0,1,0
0.055999000,0,1,1,0,0,1,1,0,0,0,1,1
0.056499000,0,1,1,0,0,1,1,0,0,0,1,0
0.056916000,0,0,0,0,0,0,0,0,0,0,0,0
0.056929000,0,0,0,1,0,1,1,0,0,0,1,0
0.056999000,0,0,0,1,0,1,1,0,0,0,1,1
0.057499000,0,0,0,1,0,1,1,0,0,0,1,0
0.057916000,0,0,0,0,0,0,0,0,0,0,0,0
0.057929000,1,1,1,1,0,0,0,1,0,0,1,0
0.057999000,1,1,1,1,0,0,0,1,0,0,1,1
0.058499000,1,1,1,1,0,0,0,1,0,0,1,0
0.058916000,0,0,0,0,0,0,0,0,0,0,0,0
0.058929000,1,1,0,0,0,1,1,0,0,0,1,0
0.058999000,1,1,0,0,0,1,1,0,0,0,1,1
0.059499000,1,1,0,0,0,1,1,0,0,0,1,0
0.059916000,0,0,0,0,0,0,0,0,0,0,0,0
0.059929000,0,0,1,0,0,1,1,0,0,0,1,0
0.059999000,0,0,1,0,0,1,1,0,0,0,1,1
0.060499000,0,0,1,0,0,1,1,0,0,0,1,0
0.060916000,0,0,0,0,0,0,0,0,0,0,0,0
0.060929000,0,0,1,0,0,1,1,0,0,0,1,0
0.060999000,0,0,1,0,0,1,1,0,0,0,1,1
0.061499000,0,0,1,0,0,1,1,0,0,0,1,0
0.061916000,0,0,0,0,0,0,0,0,0,0,0,0
0.061929000,1,0,0,0,0,1,1,0,0,0,1,0
0.061999000,1,0,0,0,0,1,1,0,0,0,1,1
0.062499000,1,0,0,0,0,1,1,0,0,0,1,0
0.062916000,0,0,0,0,0,0,0,0,0,0,0,0
0.062929000,1,1,1,1,1,0,1,0,0,0,1,0
0.062999000,1,1,1,1,1,0,1,0,0,0,1,1
0.063499000,1,1,1,1,1,0,1,0,0,0,1,0
0.063916000,0,0,0,0,0,0,0,0,0,0,0,0
0.063929000,1,0,0,1,0,1,1,0,0,0,1,0
0.063999000,1,0,0,1,0,1,1,0,0,0,1,1
0.064499000,1,0,0,1,0,1,1,0,0,0,1,0
0.064916000,0,0,0,0,0,0,0,0,0,0,0,0
0.064929000,0,1,1,0,0,1,1,0,0,0,1,0
0.064999000,0,1,1,0,0,1,1,0,0,0,1,1
0.065499000,0,1,1,0,0,1,1,0,0,0,1,0
0.065916000,0,0,0,0,0,0,0,0,0,0,0,0
0.065929000,1,1,0,0,0,1,1,0,0,0,1,0
0.065999000,1,1,0,0,0,1,1,0,0,0,1,1
0.066499000,1,1,0,0,0,1,1,0,0,0,1,0
0.066916000,0,0,0,0,0,0,0,0,0,0,0,0
0.066929000,1,1,0,0,0,1,1,0,0,0,1,0
0.066999000,1,1,0,0,0,1,1,0,0,0,1,1
0.067499000,1,1,0,0,0,1,1,0,0,0,1,0
0.067916000,0,0,0,0,0,0,0,0,0,0,0,0
0.067929000,1,0,1,0,0,1,1,0,0,0,1,0
0.067999000,1,0,1,0,0,1,1,0,0,0,1,1
0.068499000,1,0,1,0,0,1,1,0,0,0,1,0
0.068916000,0,0,0,0,0,0,0,0,0,0,0,0
0.068929000,1,1,1,0,0,1,1,0,0,0,1,0
0.068999000,1,1,1,0,0,1,1,0,0,0,1,1
0.069499000,1,1,1,0,0,1,1,0,0,0,1,0
0.069916000,0,0,0,0,0,0,0,0,0,0,0,0
0.069929000,0,0,1,0,0,1,1,0,0,0,1,0
0.069999000,0,0,1,0,0,1,1,0,0,0,1,1
0.070499000,0,0,1,0,0,1,1,0,0,0,1,0
0.070916000,0,0,0,0,0,0,0,0,0,0,0,0
0.070928000,0,0,0,1,0,1,1,0,0,0,1,0
0.070999000,0,0,0,1,0,1,1,0,0,0,1,1
0.071499000,0,0,0,1,0,1,1,0,0,0,1,0
0.071916000,0,0,0,0,0,0,0,0,0,0,0,0
0.071929000,1,0,0,0,0,1,1,0,0,0,1,0
0.071999000,1,0,0,0,0,1,1,0,0,0,1,1
0.072499000,1,0,0,0,0,1,1,0,0,0,1,0
0.072916000,0,0,0,0,0,0,0,0,0,0,0,0
0.072929000,1,0,1,0,0,1,1,0,0,0,1,0
0.072999000,1,0,1,0,0,1,1,0,0,0,1,1
0.073499000,1,0,1,0,0,1,1,0,0,0,1,0
0.073916000,0,0,0,0,0,0,0,0,0,0,0,0
0.073928000,0,0,0,1,0,1,1,0,0,0,1,0
0.073999000,0,0,0,1,0,1,1,0,0,0,1,1
0.074499000,0,0,0,1,0,1,1,0,0,0,1,0
0.074916000,0,0,0,0,0,0,0,0,0,0,0,0
0.074929000,1,1,1,1,1,0,1,0,0,0,1,0
0.074999000,1,1,1,1,1,0,1,0,0,0,1,1
0.075499000,1,1,1,1,1,0,1,0,0,0,1,0
0.075916000,0,0,0,0,0,0,0,0,0,0,0,0
0.075929000,1,1,0,0,0,1,1,0,0,0,1,0
0.075999000,1,1,0,0,0,1,1,0,0,0,1,1
0.076499000,1,1,0,0,0,1,1,0,0,0,1,0
0.076916000,0,0,0,0,0,0,0,0,0,0,0,0
0.076928000,0,0,0,0,0,1,0,0,0,0,0,0
0.076929000,0,0,1,0,0,1,1,0,0,0,1,0
0.076999000,0,0,1,0,0,1,1,0,0,0,1,1
0.077499000,0,0,1,0,0,1,1,0,0,0,1,0
0.077916000,0,0,0,0,0,0,0,0,0,0,0,0
0.077928000,0,0,1,0,0,1,1,0,0,0,1,0
0.077929000,1,0,1,0,0,1,1,0,0,0,1,0
0.077999000,1,0,1,0,0,1,1,0,0,0,1,1
0.078499000,1,0,1,0,0,1,1,0,0,0,1,0
0.078916000,0,0,0,0,0,0,0,0,0,0,0,0
0.078929000,1,0,1,0,0,1,1,0,0,0,1,0
0.078999000,1,0,1,0,0,1,1,0,0,0,1,1
0.079499000,1,0,1,0,0,1,1,0,0,0,1,0
0.079916000,0,0,0,0,0,0,0,0,0,0,0,0
0.079929000,1,1,0,0,0,1,1,0,0,0,1,0
0.079999000,1,1,0,0,0,1,1,0,0,0,1,1
0.080499000,1,1,0,0,0,1,1,0,0,0,1,0
0.080916000,0,0,0,0,0,0,0,0,0,0,0,0
0.080928000,0,0,0,0,0,1,0,0,0,0,0,0
0.080929000,0,1,0,1,0,1,1,0,0,0,1,0
0.080999000,0,1,0,1,0,1,1,0,0,0,1,1
0.081499000,0,1,0,1,0,1,1,0,0,0,1,0
0.081916000,0,0,0,0,0,0,0,0,0,0,0,0
0.081928000,1,1,0,0,0,1,1,0,0,0,1,0
0.081999000,1,1,0,0,0,1,1,0,0,0,1,1
0.082499000,1,1,0,0,0,1,1,0,0,0,1,0
0.082916000,0,0,0,0,0,0,0,0,0,0,0,0
0.082928000,1,1,1,1,1,0,1,0,0,0,1,0
0.082999000,1,1,1,1,1,0,1,0,0,0,1,1
0.083499000,1,1,1,1,1,0,1,0,0,0,1,0
0.083916000,0,0,0,0,0,0,0,0,0,0,0,0
0.083928000,0,0,0,1,0,1,1,0,0,0,1,0
0.083999000,0,0,0,1,0,1,1,0,0,0,1,1
0.084499000,0,0,0,1,0,1,1,0,0,0,1,0
0.084916000,0,0,0,0,0,0,0,0,0,0,0,0
0.084929000,1,1,1,0,0,1,1,0,0,0,1,0
0.084999000,1,1,1,0,0,1,1,0,0,0,1,1
0.085499000,1,1,1,0,0,1,1,0,0,0,1,0
0.085916000,0,0,0,0,0,0,0,0,0,0,0,0
0.085929000,0,0,0,1,0,1,1,0,0,0,1,0
0.085999000,0,0,0,1,0,1,1,0,0,0,1,1
0.086499000,0,0,0,1,0,1,1,0,0,0,1,0
0.086916000,0,0,0,0,0,0,0,0,0,0,0,0
0.086928000,0,0,0,1,0,1,1,0,0,0,1,0
0.086999000,0,0,0,1,0,1,1,0,0,0,1,1
0.087499000,0,0,0,1,0,1,1,0,0,0,1,0
0.087916000,0,0,0,0,0,0,0,0,0,0,0,0
0.087928000,0,0,0,1,0,1,1,0,0,0,1,0
0.087999000,0,0,0,1,0,1,1,0,0,0,1,1
0.088499000,0,0,0,1,0,1,1,0,0,0,1,0
0.088916000,0,0,0,0,0,0,0,0,0,0,0,0
0.088928000,0,1,0,0,0,1,1,0,0,0,1,0
0.088999000,0,1,0,0,0,1,1,0,0,0,1,1
0.089499000,0,1,0,0,0,1,1,0,0,0,1,0
0.089916000,0,0,0,0,0,0,0,0,0,0,0,0
0.089928000,1,1,0,0,0,1,1,0,0,0,1,0
0.089999000,1,1,0,0,0,1,1,0,0,0,1,1
0.090499000,1,1,0,0,0,1,1,0,0,0,1,0
0.090916000,0,0,0,0,0,0,0,0,0,0,0,0
0.090928000,0,0,0,1,0,1,1,0,0,0,1,0
0.090999000,0,0,0,1,0,1,1,0,0,0,1,1
0.091499000,0,0,0,1,0,1,1,0,0,0,1,0
0.091916000,0,0,0,0,0,0,0,0,0,0,0,0
0.091928000,0,1,1,0,0,1,1,0,0,0,1,0
0.091999000,0,1,1,0,0,1,1,0,0,0,1,1
0.092499000,0,1,1,0,0,1,1,0,0,0,1,0
0.092916000,0,0,0,0,0,0,0,0,0,0,0,0
0.092928000,1,1,1,0,0,1,1,0,0,0,1,0
0.092999000,1,1,1,0,0,1,1,0,0,0,1,1
0.093499000,1,1,1,0,0,1,1,0,0,0,1,0
0.093916000,0,0,0,0,0,0,0,0,0,0,0,0
0.093928000,1,1,1,0,0,1,1,0,0,0,1,0
0.093999000,1,1,1,0,0,1,1,0,0,0,1,1
0.094499000,1,1,1,0,0,1,1,0,0,0,1,0
0.094916000,0,0,0,0,0,0,0,0,0,0,0,0
0.094928000,1,1,0,0,0,1,1,0,0,0,1,0
0.094999000,1,1,0,0,0,1,1,0,0,0,1,1
0.095499000,1,1,0,0,0,1,1,0,0,0,1,0
0.095916000,0,0,0,0,0,0,0,0,0,0,0,0
0.095928000,1,0,0,0,0,1,1,0,0,0,1,0
0.095999000,1,0,0,0,0,1,1,0,0,0,1,1
0.096499000,1,0,0,0,0,1,1,0,0,0,1,0
0.096916000,0,0,0,0,0,0,0,0,0,0,0,0
0.096928000,0,0,0,1,0,1,1,0,0,0,1,0
0.096999000,0,0,0,1,0,1,1,0,0,0,1,1
0.097499000,0,0,0,1,0,1,1,0,0,0,1,0
0.097916000,0,0,0,0,0,0,0,0,0,0,0,0
0.097928000,1,1,1,1,1,0,1,0,0,0,1,0
0.097999000,1,1,1,1,1,0,1,0,0,0,1,1
0.098499000,1,1,1,1,1,0,1,0,0,0,1,0
0.098916000,0,0,0,0,0,0,0,0,0,0,0,0
0.098928000,1,1,1,0,0,1,1,0,0,0,1,0
0.098999000,1,1,1,0,0,1,1,0,0,0,1,1
0.099499000,1,1,1,0,0,1,1,0,0,0,1,0
0.099916000,0,0,0,0,0,0,0,0,0,0,0,0
0.099928000,0,0,1,0,0,1,1,0,0,0,1,0
0.099999000,0,0,1,0,0,1,1,0,0,0,1,1
0.100499000,0,0,1,0,0,1,1,0,0,0,1,0
0.100916000,0,0,0,0,0,0,0,0,0,0,0,0
0.100928000,1,1,1,1,1,0,1,0,0,0,1,0
0.100999000,1,1,1,1,1,0,1,0,0,0,1,1
0.101499000,1,1,1,1,1,0,1,0,0,0,1,0
0.101916000,0,0,0,0,0,0,0,0,0,0,0,0
0.101928000,0,0,0,1,0,1,1,0,0,0,1,0
0.101999000,0,0,0,1,0,1,1,0,0,0,1,1
0.102499000,0,0,0,1,0,1,1,0,0,0,1,0
0.102916000,0,0,0,0,0,0,0,0,0,0,0,0
0.102928000,1,1,1,0,0,1,1,0,0,0,1,0
0.102999000,1,1,1,0,0,1,1,0,0,0,1,1
0.103499000,1,1,1,0,0,1,1,0,0,0,1,0
0.103916000,0,0,0,0,0,0,0,0,0,0,0,0
0.103928000,0,1,0,1,0,1,1,0,0,0,1,0
0.103999000,0,1,0,1,0,1,1,0,0,0,1,1
0.104499000,0,1,0,1,0,1,1,0,0,0,1,0
0.104916000,0,0,0,0,0,0,0,0,0,0,0,0
0.104928000,0,1,1,0,0,1,1,0,0,0,1,0
0.104999000,0,1,1,0,0,1,1,0,0,0,1,1
0.105499000,0,1,1,0,0,1,1,0,0,0,1,0
0.105916000,0,0,0,0,0,0,0,0,0,0,0,0
0.105928000,0,1,1,0,0,1,1,0,0,0,1,0
0.105999000,0,1,1,0,0,1,1,0,0,0,1,1
0.106499000,0,1,1,0,0,1,1,0,0,0,1,0
0.106916000,0,0,0,0,0,0,0,0,0,0,0,0
0.106928000,1,1,1,0,0,1,1,0,0,0,1,0
0.106999000,1,1,1,0,0,1,1,0,0,0,1,1
0.107499000,1,1,1,0,0,1,1,0,0,0,1,0
0.107916000,0,0,0,0,0,0,0,0,0,0,0,0
0.107928000,0,1,0,0,0,1,1,0,0,0,1,0
0.107999000,0,1,0,0,0,1,1,0,0,0,1,1
0.108499000,0,1,0,0,0,1,1,0,0,0,1,0
0.108916000,0,0,0,0,0,0,0,0,0,0,0,0
0.108928000,0,0,0,1,0,1,1,0,0,0,1,0
0.108999000,0,0,0,1,0,1,1,0,0,0,1,1
0.109499000,0,0,0,1,0,1,1,0,0,0,1,0
0.109916000,0,0,0,0,0,0,0,0,0,0,0,0
0.109928000,0,1,1,0,0,1,1,0,0,0,1,0
0.109999000,0,1,1,0,0,1,1,0,0,0,1,1
0.110499000,0,1,1,0,0,1,1,0,0,0,1,0
0.110916000,0,0,0,0,0,0,0,0,0,0,0,0
0.110928000,0,1,0,1,0,1,1,0,0,0,1,0
0.110999000,0,1,0,1,0,1,1,0,0,0,1,1
0.111499000,0,1,0,1,0,1,1,0,0,0,1,0
0.111916000,0,0,0,0,0,0,0,0,0,0,0,0
0.111928000,0,1,1,0,0,1,1,0,0,0,1,0
0.111999000,0,1,1,0,0,1,1,0,0,0,1,1
0.112499000,0,1,1,0,0,1,1,0,0,0,1,0
0.112916000,0,0,0,0,0,0,0,0,0,0,0,0
0.112928000,1,1,1,1,1,0,1,0,0,0,1,0
0.112999000,1,1,1,1,1,0,1,0,0,0,1,1
0.113499000,1,1,1,1,1,0,1,0,0,0,1,0
0.113916000,0,0,0,0,0,0,0,0,0,0,0,0
0.113928000,1,1,1,0,0,1,1,0,0,0,1,0
0.113999000,1,1,1,0,0,1,1,0,0,0,1,1
0.114499000,1,1,1,0,0,1,1,0,0,0,1,0
0.114916000,0,0,0,0,0,0,0,0,0,0,0,0
0.114928000,1,1,1,0,0,1,1,0,0,0,1,0
0.114999000,1,1,1,0,0,1,1,0,0,0,1,1
0.115499000,1,1,1,0,0,1,1,0,0,0,1,0
0.115916000,0,0,0,0,0,0,0,0,0,0,0,0
0.115928000,1,1,1,0,0,1,1,0,0,0,1,0
0.115999000,1,1,1,0,0,1,1,0,0,0,1,1
0.116499000,1,1,1,0,0,1,1,0,0,0,1,0
0.116916000,0,0,0,0,0,0,0,0,0,0,0,0
0.116928000,0,1,1,1,1,0,1,0,0,0,1,0
0.116999000,0,1,1,1,1,0,1,0,0,0,1,1
0.117499000,0,1,1,1,1,0,1,0,0,0,1,0
0.117916000,0,0,0,0,0,0,0,0,0,0,0,0
0.117928000,0,1,0,0,0,1,1,0,0,0,1,0
0.117999000,0,1,0,0,0,1,1,0,0,0,1,1
0.118499000,0,1,0,0,0,1,1,0,0,0,1,0
0.118916000,0,0,0,0,0,0,0,0,0,0,0,0
0.118928000,0,1,0,0,0,1,1,0,0,0,1,0
0.118999000,0,1,0,0,0,1,1,0,0,0,1,1
0.119499000,0,1,0,0,0,1,1,0,0,0,1,0
0.119915000,0,1,0,0,0,1,1,0,0,0,0,0
0.119916000,0,0,0,0,0,0,0,0,0,0,0,0
0.119928000,1,0,1,1,1,0,1,0,0,0,1,0
0.119999000,1,0,1,1,1,0,1,0,0,0,1,1
0.120499000,1,0,1,1,1,0,1,0,0,0,1,0
0.120915000,1,0,1,1,1,0,1,0,0,0,0,0
0.120916000,0,0,0,0,0,0,0,0,0,0,0,0
0.120928000,0,1,1,0,0,1,1,0,0,0,1,0
0.120999000,0,1,1,0,0,1,1,0,0,0,1,1
0.121499000,0,1,1,0,0,1,1,0,0,0,1,0
0.121915000,0,1,1,0,0,1,1,0,0,0,0,0
0.121916000,0,0,0,0,0,0,0,0,0,0,0,0
0.121928000,1,0,0,0,0,1,1,0,0,0,1,0
0.121999000,1,0,0,0,0,1,1,0,0,0,1,1
0.122499000,1,0,0,0,0,1,1,0,0,0,1,0
0.122915000,1,0,0,0,0,1,1,0,0,0,0,0
0.122916000,0,0,0,0,0,0,0,0,0,0,0,0
0.122928000,0,1,1,1,1,0,1,0,0,0,1,0
0.122999000,0,1,1,1,1,0,1,0,0,0,1,1
0.123499000,0,1,1,1,1,0,1,0,0,0,1,0
0.123915000,0,1,1,0,0,0,1,0,0,0,1,0
0.123916000,0,0,0,0,0,0,0,0,0,0,0,0
0.123928000,0,0,0,1,0,1,1,0,0,0,1,0
0.123999000,0,0,0,1,0,1,1,0,0,0,1,1
0.124499000,0,0,0,1,0,1,1,0,0,0,1,0
0.124915000,0,0,0,1,0,0,0,0,0,0,0,0
0.124916000,0,0,0,0,0,0,0,0,0,0,0,0
0.124928000,1,1,0,0,0,1,1,0,0,0,1,0
0.124999000,1,1,0,0,0,1,1,0,0,0,1,1
0.125499000,1,1,0,0,0,1,1,0,0,0,1,0
0.125915000,0,0,0,0,0,0,0,0,0,0,0,0
0.125928000,0,0,1,0,0,1,1,0,0,0,1,0
0.125999000,0,0,1,0,0,1,1,0,0,0,1,1
0.126499000,0,0,1,0,0,1,1,0,0,0,1,0
0.126915000,0,0,0,0,0,0,0,0,0,0,0,0
0.126928000,0,0,0,1,0,1,1,0,0,0,1,0
0.126999000,0,0,0,1,0,1,1,0,0,0,1,1
0.127499000,0,0,0,1,0,1,1,0,0,0,1,0
0.127915000,0,0,0,0,0,0,0,0,0,0,0,0
0.127928000,1,1,1,0,0,1,1,0,0,0,1,0
0.127999000,1,1,1,0,0,1,1,0,0,0,1,1
0.128499000,1,1,1,0,0,1,1,0,0,0,1,0
0.128915000,0,0,0,0,0,0,0,0,0,0,0,0
0.128928000,1,1,1,1,1,0,1,0,0,0,1,0
0.128999000,1,1,1,1,1,0,1,0,0,0,1,1
0.129499000,1,1,1,1,1,0,1,0,0,0,1,0
0.129915000,0,0,0,0,0,0,0,0,0,0,0,0
0.129928000,1,1,0,0,0,1,1,0,0,0,1,0
0.129999000,1,1,0,0,0,1,1,0,0,0,1,1
0.130499000,1,1,0,0,0,1,1,0,0,0,1,0
0.130915000,0,0,0,0,0,0,0,0,0,0,0,0
0.130928000,0,0,1,0,0,1,1,0,0,0,1,0
0.130999000,0,0,1,0,0,1,1,0,0,0,1,1
0.131499000,0,0,1,0,0,1,1,0,0,0,1,0
0.131915000,0,0,0,0,0,0,0,0,0,0,0,0
0.131928000,1,1,1,1,1,0,1,0,0,0,1,0
0.131999000,1,1,1,1,1,0,1,0,0,0,1,1
0.132499000,1,1,1,1,1,0,1,0,0,0,1,0
0.132915000,0,0,0,0,0,0,1,0,0,0,0,0
0.132916000,0,0,0,0,0,0,0,0,0,0,0,0
0.132928000,1,1,0,0,0,1,1,0,0,0,1,0
0.132999000,1,1,0,0,0,1,1,0,0,0,1,1
0.133499000,1,1,0,0,0,1,1,0,0,0,1,0
0.133915000,0,0,0,0,0,0,0,0,0,0,0,0
0.133928000,1,1,0,0,0,1,1,0,0,0,1,0
0.133999000,1,1,0,0,0,1,1,0,0,0,1,1
0.134499000,1,1,0,0,0,1,1,0,0,0,1,0
0.134915000,0,0,0,0,0,0,0,0,0,0,0,0
0.134928000,0,1,0,0,0,1,1,0,0,0,1,0
