Time [s],Channel 0,Channel 1,Channel 2,Channel 3,Channel 4,Channel 5,Channel 6,Channel 7,Channel 8,Channel 9,Channel 10,Channel 11
-0.000603000,0,1,0,1,0,0,1,0,0,0,0,1
-0.000500000,0,1,0,1,0,0,1,0,0,0,0,0
-0.000084000,0,0,0,0,0,0,0,0,0,0,0,0
-0.000077000,1,1,1,0,0,0,1,0,0,0,0,0
0.000000000,1,1,1,0,0,0,1,0,0,0,0,1
0.000500000,1,1,1,0,0,0,1,0,0,0,0,0
0.000916000,0,0,0,0,0,0,0,0,0,0,0,0
0.000923000,1,1,1,0,0,0,1,0,0,0,0,0
0.001000000,1,1,1,0,0,0,1,0,0,0,0,1
0.001500000,1,1,1,0,0,0,1,0,0,0,0,0
0.001916000,0,0,0,0,0,0,0,0,0,0,0,0
0.001923000,0,1,0,1,0,0,1,0,0,0,0,0
0.002000000,0,1,0,1,0,0,1,0,0,0,0,1
0.002500000,0,1,0,1,0,0,1,0,0,0,0,0
0.002916000,0,0,0,0,0,0,0,0,0,0,0,0
0.002923000,0,1,1,0,0,0,1,0,0,0,0,0
0.003000000,0,1,1,0,0,0,1,0,0,0,0,1
0.003500000,0,1,1,0,0,0,1,0,0,0,0,0
0.003916000,0,0,0,0,0,0,0,0,0,0,0,0
0.003923000,0,1,1,0,0,0,1,0,0,0,0,0
0.004000000,0,1,1,0,0,0,1,0,0,0,0,1
0.004500000,0,1,1,0,0,0,1,0,0,0,0,0
0.004916000,0,0,0,0,0,0,0,0,0,0,0,0
0.004923000,0,0,0,1,0,0,1,0,0,0,0,0
0.005000000,0,0,0,1,0,0,1,0,0,0,0,1
0.005500000,0,0,0,1,0,0,1,0,0,0,0,0
0.005916000,0,0,0,0,0,0,0,0,0,0,0,0
0.005923000,1,0,0,1,0,0,1,0,0,0,0,0
0.006000000,1,0,0,1,0,0,1,0,0,0,0,1
0.006500000,1,0,0,1,0,0,1,0,0,0,0,0
0.006916000,0,0,0,0,0,0,0,0,0,0,0,0
0.006923000,0,1,1,0,0,0,1,0,0,0,0,0
0.007000000,0,1,1,0,0,0,1,0,0,0,0,1
0.007500000,0,1,1,0,0,0,1,0,0,0,0,0
0.007916000,0,0,0,0,0,0,0,0,0,0,0,0
0.007923000,1,1,1,0,0,0,1,0,0,0,0,0
0.008000000,1,1,1,0,0,0,1,0,0,0,0,1
0.008500000,1,1,1,0,0,0,1,0,0,0,0,0
0.008916000,0,0,0,0,0,0,0,0,0,0,0,0
0.008923000,1,0,0,0,1,0,1,0,0,0,0,0
0.009000000,1,0,0,0,1,0,1,0,0,0,0,1
0.009500000,1,0,0,0,1,0,1,0,0,0,0,0
0.009916000,0,0,0,0,0,0,0,0,0,0,0,0
0.009923000,1,0,1,1,0,0,1,0,0,0,0,0
0.010000000,1,0,1,1,0,0,1,0,0,0,0,1
0.010500000,1,0,1,1,0,0,1,0,0,0,0,0
0.010916000,0,0,0,0,0,0,0,0,0,0,0,0
0.010923000,1,0,1,1,0,0,1,0,0,0,0,0
0.011000000,1,0,1,1,0,0,1,0,0,0,0,1
0.011499000,1,0,1,1,0,0,1,0,0,0,0,0
0.011916000,0,0,0,0,0,0,0,0,0,0,0,0
0.011923000,0,1,0,1,0,0,1,0,0,0,0,0
0.011999000,0,1,0,1,0,0,1,0,0,0,0,1
0.012499000,0,1,0,1,0,0,1,0,0,0,0,0
0.012916000,0,0,0,0,0,0,0,0,0,0,0,0
0.012923000,1,0,1,1,0,0,1,0,0,0,0,0
0.012999000,1,0,1,1,0,0,1,0,0,0,0,1
0.013499000,1,0,1,1,0,0,1,0,0,0,0,0
0.013916000,0,0,0,0,0,0,0,0,0,0,0,0
0.013923000,0,1,0,1,0,0,1,0,0,0,0,0
0.013999000,0,1,0,1,0,0,1,0,0,0,0,1
0.014499000,0,1,0,1,0,0,1,0,0,0,0,0
0.014916000,0,0,0,0,0,0,0,0,0,0,0,0
0.014923000,0,0,0,1,0,0,1,0,0,0,0,0
0.014999000,0,0,0,1,0,0,1,0,0,0,0,1
0.015499000,0,0,0,1,0,0,1,0,0,0,0,0
0.015916000,0,0,0,0,0,0,0,0,0,0,0,0
0.015923000,0,0,0,1,0,0,1,0,0,0,0,0
0.015999000,0,0,0,1,0,0,1,0,0,0,0,1
0.016499000,0,0,0,1,0,0,1,0,0,0,0,0
0.016916000,0,0,0,0,0,0,0,0,0,0,0,0
0.016923000,1,0,0,1,0,0,1,0,0,0,0,0
0.016999000,1,0,0,1,0,0,1,0,0,0,0,1
0.017499000,1,0,0,1,0,0,1,0,0,0,0,0
0.017916000,0,0,0,0,0,0,0,0,0,0,0,0
0.017923000,0,0,0,1,0,0,1,0,0,0,0,0
0.017999000,0,0,0,1,0,0,1,0,0,0,0,1
0.018499000,0,0,0,1,0,0,1,0,0,0,0,0
0.018916000,0,0,0,0,0,0,0,0,0,0,0,0
0.018923000,1,0,1,0,0,0,1,0,0,0,0,0
0.018999000,1,0,1,0,0,0,1,0,0,0,0,1
0.019499000,1,0,1,0,0,0,1,0,0,0,0,0
0.019916000,0,0,0,0,0,0,0,0,0,0,0,0
0.019923000,0,1,0,1,0,0,1,0,0,0,0,0
0.019999000,0,1,0,1,0,0,1,0,0,0,0,1
0.020499000,0,1,0,1,0,0,1,0,0,0,0,0
0.020916000,0,0,0,0,0,0,0,0,0,0,0,0
0.020923000,1,0,1,1,0,0,1,0,0,0,0,0
0.020999000,1,0,1,1,0,0,1,0,0,0,0,1
0.021499000,1,0,1,1,0,0,1,0,0,0,0,0
0.021916000,0,0,0,0,0,0,0,0,0,0,0,0
0.021923000,1,1,0,1,0,0,1,0,0,0,0,0
0.021999000,1,1,0,1,0,0,1,0,0,0,0,1
0.022499000,1,1,0,1,0,0,1,0,0,0,0,0
0.022916000,0,0,0,0,0,0,0,0,0,0,0,0
0.022923000,0,0,0,1,0,0,1,0,0,0,0,0
0.022999000,0,0,0,1,0,0,1,0,0,0,0,1
0.023499000,0,0,0,1,0,0,1,0,0,0,0,0
0.023916000,0,0,0,0,0,0,0,0,0,0,0,0
0.023923000,1,1,0,1,0,0,1,0,0,0,0,0
0.023999000,1,1,0,1,0,0,1,0,0,0,0,1
0.024499000,1,1,0,1,0,0,1,0,0,0,0,0
0.024916000,0,0,0,0,0,0,0,0,0,0,0,0
0.024923000,1,0,1,1,0,0,1,0,0,0,0,0
0.024999000,1,0,1,1,0,0,1,0,0,0,0,1
0.025499000,1,0,1,1,0,0,1,0,0,0,0,0
0.025916000,0,0,0,0,0,0,0,0,0,0,0,0
0.025923000,0,0,1,1,0,0,1,0,0,0,0,0
0.025999000,0,0,1,1,0,0,1,0,0,0,0,1
0.026499000,0,0,1,1,0,0,1,0,0,0,0,0
0.026916000,0,0,0,0,0,0,0,0,0,0,0,0
0.026923000,0,0,0,1,0,0,1,0,0,0,0,0
0.026999000,0,0,0,1,0,0,1,0,0,0,0,1
0.027499000,0,0,0,1,0,0,1,0,0,0,0,0
0.027916000,0,0,0,0,0,0,0,0,0,0,0,0
0.027923000,1,0,1,1,0,0,1,0,0,0,0,0
0.027999000,1,0,1,1,0,0,1,0,0,0,0,1
0.028499000,1,0,1,1,0,0,1,0,0,0,0,0
0.028916000,0,0,0,0,0,0,0,0,0,0,0,0
0.028923000,1,0,0,1,0,0,1,0,0,0,0,0
0.028999000,1,0,0,1,0,0,1,0,0,0,0,1
0.029499000,1,0,0,1,0,0,1,0,0,0,0,0
0.029916000,0,0,0,0,0,0,0,0,0,0,0,0
0.029923000,1,0,0,1,0,0,1,0,0,0,0,0
0.029999000,1,0,0,1,0,0,1,0,0,0,0,1
0.030499000,1,0,0,1,0,0,1,0,0,0,0,0
0.030916000,0,0,0,0,0,0,0,0,0,0,0,0
0.030923000,0,0,1,1,0,0,1,0,0,0,0,0
0.030999000,0,0,1,1,0,0,1,0,0,0,0,1
0.031499000,0,0,1,1,0,0,1,0,0,0,0,0
0.031916000,0,0,0,0,0,0,0,0,0,0,0,0
0.031923000,1,1,1,0,0,0,1,0,0,0,0,0
0.031999000,1,1,1,0,0,0,1,0,0,0,0,1
0.032499000,1,1,1,0,0,0,1,0,0,0,0,0
0.032916000,0,0,0,0,0,0,0,0,0,0,0,0
0.032923000,1,0,0,1,0,0,1,0,0,0,0,0
0.032999000,1,0,0,1,0,0,1,0,0,0,0,1
0.033499000,1,0,0,1,0,0,1,0,0,0,0,0
0.033916000,0,0,0,0,0,0,0,0,0,0,0,0
0.033923000,0,0,1,0,0,0,1,0,0,0,0,0
0.033999000,0,0,1,0,0,0,1,0,0,0,0,1
0.034499000,0,0,1,0,0,0,1,0,0,0,0,0
0.034916000,0,0,0,0,0,0,0,0,0,0,0,0
0.034923000,1,1,0,1,0,0,1,0,0,0,0,0
0.034999000,1,1,0,1,0,0,1,0,0,0,0,1
0.035499000,1,1,0,1,0,0,1,0,0,0,0,0
0.035916000,0,0,0,0,0,0,0,0,0,0,0,0
0.035923000,0,1,0,1,0,0,1,0,0,0,0,0
0.035999000,0,1,0,1,0,0,1,0,0,0,0,1
0.036499000,0,1,0,1,0,0,1,0,0,0,0,0
0.036916000,0,0,0,0,0,0,0,0,0,0,0,0
0.036923000,1,0,1,1,0,0,1,0,0,0,0,0
0.036999000,1,0,1,1,0,0,1,0,0,0,0,1
0.037499000,1,0,1,1,0,0,1,0,0,0,0,0
0.037916000,0,0,0,0,0,0,0,0,0,0,0,0
0.037923000,1,1,0,0,0,0,1,0,0,0,0,0
0.037999000,1,1,0,0,0,0,1,0,0,0,0,1
0.038499000,1,1,0,0,0,0,1,0,0,0,0,0
0.038916000,0,0,0,0,0,0,0,0,0,0,0,0
0.038923000,0,1,0,1,0,0,1,0,0,0,0,0
0.038999000,0,1,0,1,0,0,1,0,0,0,0,1
0.039499000,0,1,0,1,0,0,1,0,0,0,0,0
0.039916000,0,0,0,0,0,0,0,0,0,0,0,0
0.039923000,0,1,0,1,0,0,1,0,0,0,0,0
0.039999000,0,1,0,1,0,0,1,0,0,0,0,1
0.040499000,0,1,0,1,0,0,1,0,0,0,0,0
0.040916000,0,0,0,0,0,0,0,0,0,0,0,0
0.040923000,1,0,0,1,0,0,1,0,0,0,0,0
0.040999000,1,0,0,1,0,0,1,0,0,0,0,1
0.041499000,1,0,0,1,0,0,1,0,0,0,0,0
0.041916000,0,0,0,0,0,0,0,0,0,0,0,0
0.041923000,1,1,0,1,0,0,1,0,0,0,0,0
0.041999000,1,1,0,1,0,0,1,0,0,0,0,1
0.042499000,1,1,0,1,0,0,1,0,0,0,0,0
0.042916000,0,0,0,0,0,0,0,0,0,0,0,0
0.042923000,0,0,1,0,0,0,1,0,0,0,0,0
0.042999000,0,0,1,0,0,0,1,0,0,0,0,1
0.043499000,0,0,1,0,0,0,1,0,0,0,0,0
0.043916000,0,0,0,0,0,0,0,0,0,0,0,0
0.043923000,0,0,1,1,0,0,1,0,0,0,0,0
0.043999000,0,0,1,1,0,0,1,0,0,0,0,1
0.044499000,0,0,1,1,0,0,1,0,0,0,0,0
0.044916000,0,0,0,0,0,0,0,0,0,0,0,0
0.044923000,1,1,1,0,0,0,1,0,0,0,0,0
0.044999000,1,1,1,0,0,0,1,0,0,0,0,1
0.045499000,1,1,1,0,0,0,1,0,0,0,0,0
0.045916000,0,0,0,0,0,0,0,0,0,0,0,0
0.045923000,1,0,1,0,0,0,1,0,0,0,0,0
0.045999000,1,0,1,0,0,0,1,0,0,0,0,1
0.046499000,1,0,1,0,0,0,1,0,0,0,0,0
0.046916000,0,0,0,0,0,0,0,0,0,0,0,0
0.046923000,0,0,0,1,0,0,1,0,0,0,0,0
0.046999000,0,0,0,1,0,0,1,0,0,0,0,1
0.047499000,0,0,0,1,0,0,1,0,0,0,0,0
0.047916000,0,0,0,0,0,0,0,0,0,0,0,0
0.047923000,0,0,1,1,0,0,1,0,0,0,0,0
0.047999000,0,0,1,1,0,0,1,0,0,0,0,1
0.048499000,0,0,1,1,0,0,1,0,0,0,0,0
0.048916000,0,0,0,0,0,0,0,0,0,0,0,0
0.048923000,1,0,1,0,0,0,1,0,0,0,0,0
0.048999000,1,0,1,0,0,0,1,0,0,0,0,1
0.049499000,1,0,1,0,0,0,1,0,0,0,0,0
0.049916000,0,0,0,0,0,0,0,0,0,0,0,0
0.049923000,1,0,0,1,0,0,1,0,0,0,0,0
0.049999000,1,0,0,1,0,0,1,0,0,0,0,1
0.050499000,1,0,0,1,0,0,1,0,0,0,0,0
0.050916000,0,0,0,0,0,0,0,0,0,0,0,0
0.050923000,1,1,1,0,0,0,1,0,0,0,0,0
0.050999000,1,1,1,0,0,0,1,0,0,0,0,1
0.051499000,1,1,1,0,0,0,1,0,0,0,0,0
0.051916000,0,0,0,0,0,0,0,0,0,0,0,0
0.051923000,0,1,0,1,0,0,1,0,0,0,0,0
0.051999000,0,1,0,1,0,0,1,0,0,0,0,1
0.052499000,0,1,0,1,0,0,1,0,0,0,0,0
0.052916000,0,0,0,0,0,0,0,0,0,0,0,0
0.052923000,0,0,1,1,0,0,1,0,0,0,0,0
0.052999000,0,0,1,1,0,0,1,0,0,0,0,1
0.053499000,0,0,1,1,0,0,1,0,0,0,0,0
0.053916000,0,0,0,0,0,0,0,0,0,0,0,0
0.053923000,1,0,0,1,0,0,1,0,0,0,0,0
0.053999000,1,0,0,1,0,0,1,0,0,0,0,1
0.054499000,1,0,0,1,0,0,1,0,0,0,0,0
0.054916000,0,0,0,0,0,0,0,0,0,0,0,0
0.054923000,1,1,1,0,0,0,1,0,0,0,0,0
0.054999000,1,1,1,0,0,0,1,0,0,0,0,1
0.055499000,1,1,1,0,0,0,1,0,0,0,0,0
0.055916000,0,0,0,0,0,0,0,0,0,0,0,0
0.055923000,0,0,1,1,0,0,1,0,0,0,0,0
0.055999000,0,0,1,1,0,0,1,0,0,0,0,1
0.056499000,0,0,1,1,0,0,1,0,0,0,0,0
0.056916000,0,0,0,0,0,0,0,0,0,0,0,0
0.056923000,1,0,1,1,0,0,1,0,0,0,0,0
0.056999000,1,0,1,1,0,0,1,0,0,0,0,1
0.057499000,1,0,1,1,0,0,1,0,0,0,0,0
0.057916000,0,0,0,0,0,0,0,0,0,0,0,0
0.057923000,1,1,1,0,0,0,1,0,0,0,0,0
0.057999000,1,1,1,0,0,0,1,0,0,0,0,1
0.058499000,1,1,1,0,0,0,1,0,0,0,0,0
0.058916000,0,0,0,0,0,0,0,0,0,0,0,0
0.058923000,0,1,0,1,0,0,1,0,0,0,0,0
0.058999000,0,1,0,1,0,0,1,0,0,0,0,1
0.059499000,0,1,0,1,0,0,1,0,0,0,0,0
0.059916000,0,0,0,0,0,0,0,0,0,0,0,0
0.059923000,1,0,0,1,0,0,1,0,0,0,0,0
0.059999000,1,0,0,1,0,0,1,0,0,0,0,1
0.060499000,1,0,0,1,0,0,1,0,0,0,0,0
0.060916000,0,0,0,0,0,0,0,0,0,0,0,0
0.060923000,0,0,1,1,0,0,1,0,0,0,0,0
0.060999000,0,0,1,1,0,0,1,0,0,0,0,1
0.061499000,0,0,1,1,0,0,1,0,0,0,0,0
0.061916000,0,0,0,0,0,0,0,0,0,0,0,0
0.061923000,0,0,0,1,0,0,1,0,0,0,0,0
0.061999000,0,0,0,1,0,0,1,0,0,0,0,1
0.062499000,0,0,0,1,0,0,1,0,0,0,0,0
0.062916000,0,0,0,0,0,0,0,0,0,0,0,0
0.062923000,0,1,0,1,0,0,1,0,0,0,0,0
0.062999000,0,1,0,1,0,0,1,0,0,0,0,1
0.063499000,0,1,0,1,0,0,1,0,0,0,0,0
0.063916000,0,0,0,0,0,0,0,0,0,0,0,0
0.063923000,1,0,1,0,0,0,1,0,0,0,0,0
0.063999000,1,0,1,0,0,0,1,0,0,0,0,1
0.064499000,1,0,1,0,0,0,1,0,0,0,0,0
0.064916000,0,0,0,0,0,0,0,0,0,0,0,0
0.064923000,0,0,0,1,0,0,1,0,0,0,0,0
0.064999000,0,0,0,1,0,0,1,0,0,0,0,1
0.065499000,0,0,0,1,0,0,1,0,0,0,0,0
0.065916000,0,0,0,0,0,0,0,0,0,0,0,0
0.065923000,0,1,0,1,0,0,1,0,0,0,0,0
0.065999000,0,1,0,1,0,0,1,0,0,0,0,1
0.066499000,0,1,0,1,0,0,1,0,0,0,0,0
0.066916000,0,0,0,0,0,0,0,0,0,0,0,0
0.066923000,1,1,0,1,0,0,1,0,0,0,0,0
0.066999000,1,1,0,1,0,0,1,0,0,0,0,1
0.067499000,1,1,0,1,0,0,1,0,0,0,0,0
0.067916000,0,0,0,0,0,0,0,0,0,0,0,0
0.067923000,0,1,0,1,0,0,1,0,0,0,0,0
0.067999000,0,1,0,1,0,0,1,0,0,0,0,1
0.068499000,0,1,0,1,0,0,1,0,0,0,0,0
0.068916000,0,0,0,0,0,0,0,0,0,0,0,0
0.068923000,1,1,1,0,0,0,1,0,0,0,0,0
0.068999000,1,1,1,0,0,0,1,0,0,0,0,1
0.069499000,1,1,1,0,0,0,1,0,0,0,0,0
0.069916000,0,0,0,0,0,0,0,0,0,0,0,0
0.069923000,1,1,1,0,0,0,1,0,0,0,0,0
0.069999000,1,1,1,0,0,0,1,0,0,0,0,1
0.070499000,1,1,1,0,0,0,1,0,0,0,0,0
0.070916000,0,0,0,0,0,0,0,0,0,0,0,0
0.070923000,1,0,0,1,0,0,1,0,0,0,0,0
0.070999000,1,0,0,1,0,0,1,0,0,0,0,1
0.071499000,1,0,0,1,0,0,1,0,0,0,0,0
0.071916000,0,0,0,0,0,0,0,0,0,0,0,0
0.071923000,1,0,0,1,0,0,1,0,0,0,0,0
0.071999000,1,0,0,1,0,0,1,0,0,0,0,1
0.072499000,1,0,0,1,0,0,1,0,0,0,0,0
0.072916000,0,0,0,0,0,0,0,0,0,0,0,0
0.072923000,1,1,1,0,0,0,1,0,0,0,0,0
0.072999000,1,1,1,0,0,0,1,0,0,0,0,1
0.073499000,1,1,1,0,0,0,1,0,0,0,0,0
0.073916000,0,0,0,0,0,0,0,0,0,0,0,0
0.073923000,1,1,0,1,0,0,1,0,0,0,0,0
0.073999000,1,1,0,1,0,0,1,0,0,0,0,1
0.074499000,1,1,0,1,0,0,1,0,0,0,0,0
0.074916000,0,0,0,0,0,0,0,0,0,0,0,0
0.074923000,1,1,1,0,0,0,1,0,0,0,0,0
0.074999000,1,1,1,0,0,0,1,0,0,0,0,1
0.075499000,1,1,1,0,0,0,1,0,0,0,0,0
0.075916000,0,0,0,0,0,0,0,0,0,0,0,0
0.075923000,1,1,1,0,0,0,1,0,0,0,0,0
0.075999000,1,1,1,0,0,0,1,0,0,0,0,1
0.076499000,1,1,1,0,0,0,1,0,0,0,0,0
0.076916000,0,0,0,0,0,0,0,0,0,0,0,0
0.076923000,0,0,1,1,0,0,1,0,0,0,0,0
0.076999000,0,0,1,1,0,0,1,0,0,0,0,1
0.077499000,0,0,1,1,0,0,1,0,0,0,0,0
0.077916000,0,0,0,0,0,0,0,0,0,0,0,0
0.077923000,0,1,1,1,0,0,1,0,0,0,0,0
0.077999000,0,1,1,1,0,0,1,0,0,0,0,1
0.078499000,0,1,1,1,0,0,1,0,0,0,0,0
0.078916000,0,0,0,0,0,0,0,0,0,0,0,0
0.078923000,0,1,1,0,0,0,1,0,0,0,0,0
0.078999000,0,1,1,0,0,0,1,0,0,0,0,1
0.079499000,0,1,1,0,0,0,1,0,0,0,0,0
0.079916000,0,0,0,0,0,0,0,0,0,0,0,0
0.079923000,1,0,0,1,0,0,1,0,0,0,0,0
0.079999000,1,0,0,1,0,0,1,0,0,0,0,1
0.080499000,1,0,0,1,0,0,1,0,0,0,0,0
0.080916000,0,0,0,0,0,0,0,0,0,0,0,0
0.080923000,1,0,0,1,0,0,1,0,0,0,0,0
0.080999000,1,0,0,1,0,0,1,0,0,0,0,1
0.081499000,1,0,0,1,0,0,1,0,0,0,0,0
0.081916000,0,0,0,0,0,0,0,0,0,0,0,0
0.081923000,1,1,0,1,0,0,1,0,0,0,0,0
0.081999000,1,1,0,1,0,0,1,0,0,0,0,1
0.082499000,1,1,0,1,0,0,1,0,0,0,0,0
0.082916000,0,0,0,0,0,0,0,0,0,0,0,0
0.082923000,1,1,1,0,0,0,1,0,0,0,0,0
0.082999000,1,1,1,0,0,0,1,0,0,0,0,1
0.083499000,1,1,1,0,0,0,1,0,0,0,0,0
0.083916000,0,0,0,0,0,0,0,0,0,0,0,0
0.083923000,1,0,0,0,0,0,1,0,0,0,0,0
0.083999000,1,0,0,0,0,0,1,0,0,0,0,1
0.084499000,1,0,0,0,0,0,1,0,0,0,0,0
0.084916000,0,0,0,0,0,0,0,0,0,0,0,0
0.084923000,0,0,0,1,0,0,1,0,0,0,0,0
0.084999000,0,0,0,1,0,0,1,0,0,0,0,1
0.085499000,0,0,0,1,0,0,1,0,0,0,0,0
0.085916000,0,0,0,0,0,0,0,0,0,0,0,0
0.085923000,0,1,1,0,0,0,1,0,0,0,0,0
0.085999000,0,1,1,0,0,0,1,0,0,0,0,1
0.086499000,0,1,1,0,0,0,1,0,0,0,0,0
0.086916000,0,0,0,0,0,0,0,0,0,0,0,0
0.086923000,0,0,0,1,0,0,1,0,0,0,0,0
0.086999000,0,0,0,1,0,0,1,0,0,0,0,1
0.087499000,0,0,0,1,0,0,1,0,0,0,0,0
0.087916000,0,0,0,0,0,0,0,0,0,0,0,0
0.087923000,1,1,0,1,0,0,1,0,0,0,0,0
0.087999000,1,1,0,1,0,0,1,0,0,0,0,1
0.088499000,1,1,0,1,0,0,1,0,0,0,0,0
0.088916000,0,0,0,0,0,0,0,0,0,0,0,0
0.088923000,1,1,1,0,0,0,1,0,0,0,0,0
0.088999000,1,1,1,0,0,0,1,0,0,0,0,1
0.089499000,1,1,1,0,0,0,1,0,0,0,0,0
0.089916000,0,0,0,0,0,0,0,0,0,0,0,0
0.089923000,1,1,1,0,0,0,1,0,0,0,0,0
0.089999000,1,1,1,0,0,0,1,0,0,0,0,1
0.090499000,1,1,1,0,0,0,1,0,0,0,0,0
0.090916000,0,0,0,0,0,0,0,0,0,0,0,0
0.090923000,0,1,0,1,0,0,1,0,0,0,0,0
0.090999000,0,1,0,1,0,0,1,0,0,0,0,1
0.091499000,0,1,0,1,0,0,1,0,0,0,0,0
0.091916000,0,0,0,0,0,0,0,0,0,0,0,0
0.091923000,1,0,0,1,0,0,1,0,0,0,0,0
0.091999000,1,0,0,1,0,0,1,0,0,0,0,1
0.092499000,1,0,0,1,0,0,1,0,0,0,0,0
0.092916000,0,0,0,0,0,0,0,0,0,0,0,0
0.092923000,1,0,0,0,1,0,1,0,0,0,0,0
0.092999000,1,0,0,0,1,0,1,0,0,0,0,1
0.093499000,1,0,0,0,1,0,1,0,0,0,0,0
0.093916000,0,0,0,0,0,0,0,0,0,0,0,0
0.093923000,0,0,0,1,0,0,1,0,0,0,0,0
0.093999000,0,0,0,1,0,0,1,0,0,0,0,1
0.094499000,0,0,0,1,0,0,1,0,0,0,0,0
0.094916000,0,0,0,0,0,0,0,0,0,0,0,0
0.094923000,0,1,0,1,0,0,1,0,0,0,0,0
0.094999000,0,1,0,1,0,0,1,0,0,0,0,1
0.095499000,0,1,0,1,0,0,1,0,0,0,0,0
0.095916000,0,0,0,0,0,0,0,0,0,0,0,0
0.095923000,1,0,0,0,0,0,1,0,0,0,0,0
0.095999000,1,0,0,0,0,0,1,0,0,0,0,1
0.096499000,1,0,0,0,0,0,1,0,0,0,0,0
0.096916000,0,0,0,0,0,0,0,0,0,0,0,0
0.096923000,1,1,1,0,0,0,1,0,0,0,0,0
0.096999000,1,1,1,0,0,0,1,0,0,0,0,1
0.097499000,1,1,1,0,0,0,1,0,0,0,0,0
0.097916000,0,0,0,0,0,0,0,0,0,0,0,0
0.097923000,0,1,1,0,0,0,1,0,0,0,0,0
0.097999000,0,1,1,0,0,0,1,0,0,0,0,1
0.098499000,0,1,1,0,0,0,1,0,0,0,0,0
0.098916000,0,0,0,0,0,0,0,0,0,0,0,0
0.098923000,1,0,0,1,0,0,1,0,0,0,0,0
0.098999000,1,0,0,1,0,0,1,0,0,0,0,1
0.099499000,1,0,0,1,0,0,1,0,0,0,0,0
0.099916000,0,0,0,0,0,0,0,0,0,0,0,0
0.099923000,1,0,0,1,0,0,1,0,0,0,0,0
0.099999000,1,0,0,1,0,0,1,0,0,0,0,1
0.100499000,1,0,0,1,0,0,1,0,0,0,0,0
0.100916000,0,0,0,0,0,0,0,0,0,0,0,0
0.100923000,1,1,1,0,0,0,1,0,0,0,0,0
0.100999000,1,1,1,0,0,0,1,0,0,0,0,1
0.101499000,1,1,1,0,0,0,1,0,0,0,0,0
0.101916000,0,0,0,0,0,0,0,0,0,0,0,0
0.101922000,0,0,0,0,0,0,1,0,0,0,0,0
0.101923000,0,0,1,1,0,0,1,0,0,0,0,0
0.101999000,0,0,1,1,0,0,1,0,0,0,0,1
0.102499000,0,0,1,1,0,0,1,0,0,0,0,0
0.102916000,0,0,0,0,0,0,0,0,0,0,0,0
0.102923000,0,1,0,1,0,0,1,0,0,0,0,0
0.102999000,0,1,0,1,0,0,1,0,0,0,0,1
0.103499000,0,1,0,1,0,0,1,0,0,0,0,0
0.103916000,0,0,0,0,0,0,0,0,0,0,0,0
0.103923000,0,0,1,0,0,0,1,0,0,0,0,0
0.103999000,0,0,1,0,0,0,1,0,0,0,0,1
0.104499000,0,0,1,0,0,0,1,0,0,0,0,0
0.104916000,0,0,0,0,0,0,0,0,0,0,0,0
0.104923000,0,1,0,1,0,0,1,0,0,0,0,0
0.104999000,0,1,0,1,0,0,1,0,0,0,0,1
0.105499000,0,1,0,1,0,0,1,0,0,0,0,0
0.105916000,0,0,0,0,0,0,0,0,0,0,0,0
0.105922000,0,0,0,1,0,0,1,0,0,0,0,0
0.105999000,0,0,0,1,0,0,1,0,0,0,0,1
0.106499000,0,0,0,1,0,0,1,0,0,0,0,0
0.106916000,0,0,0,0,0,0,0,0,0,0,0,0
0.106923000,0,0,0,1,0,0,1,0,0,0,0,0
0.106999000,0,0,0,1,0,0,1,0,0,0,0,1
0.107499000,0,0,0,1,0,0,1,0,0,0,0,0
0.107916000,0,0,0,0,0,0,0,0,0,0,0,0
0.107923000,0,1,0,1,0,0,1,0,0,0,0,0
0.107999000,0,1,0,1,0,0,1,0,0,0,0,1
0.108499000,0,1,0,1,0,0,1,0,0,0,0,0
0.108916000,0,0,0,0,0,0,0,0,0,0,0,0
0.108923000,1,0,0,1,0,0,1,0,0,0,0,0
0.108999000,1,0,0,1,0,0,1,0,0,0,0,1
0.109499000,1,0,0,1,0,0,1,0,0,0,0,0
0.109916000,0,0,0,0,0,0,0,0,0,0,0,0
0.109922000,0,0,1,1,0,0,1,0,0,0,0,0
0.109999000,0,0,1,1,0,0,1,0,0,0,0,1
0.110499000,0,0,1,1,0,0,1,0,0,0,0,0
0.110916000,0,0,0,0,0,0,0,0,0,0,0,0
0.110922000,1,0,0,1,0,0,1,0,0,0,0,0
0.110999000,1,0,0,1,0,0,1,0,0,0,0,1
0.111499000,1,0,0,1,0,0,1,0,0,0,0,0
0.111916000,0,0,0,0,0,0,0,0,0,0,0,0
0.111922000,0,1,1,0,0,0,1,0,0,0,0,0
0.111999000,0,1,1,0,0,0,1,0,0,0,0,1
0.112499000,0,1,1,0,0,0,1,0,0,0,0,0
0.112916000,0,0,0,0,0,0,0,0,0,0,0,0
0.112922000,0,1,0,1,0,0,1,0,0,0,0,0
0.112999000,0,1,0,1,0,0,1,0,0,0,0,1
0.113499000,0,1,0,1,0,0,1,0,0,0,0,0
0.113916000,0,0,0,0,0,0,0,0,0,0,0,0
0.113922000,1,0,0,1,0,0,1,0,0,0,0,0
0.113999000,1,0,0,1,0,0,1,0,0,0,0,1
0.114499000,1,0,0,1,0,0,1,0,0,0,0,0
0.114916000,0,0,0,0,0,0,0,0,0,0,0,0
0.114922000,1,1,0,1,0,0,1,0,0,0,0,0
0.114999000,1,1,0,1,0,0,1,0,0,0,0,1
0.115499000,1,1,0,1,0,0,1,0,0,0,0,0
0.115915000,0,0,0,0,0,0,0,0,0,0,0,0
0.115922000,1,0,0,1,0,0,1,0,0,0,0,0
0.115999000,1,0,0,1,0,0,1,0,0,0,0,1
0.116499000,1,0,0,1,0,0,1,0,0,0,0,0
0.116915000,0,0,0,0,0,0,0,0,0,0,0,0
0.116922000,0,0,1,1,0,0,1,0,0,0,0,0
0.116999000,0,0,1,1,0,0,1,0,0,0,0,1
0.117499000,0,0,1,1,0,0,1,0,0,0,0,0
0.117915000,0,0,0,0,0,0,0,0,0,0,0,0
0.117922000,1,0,0,1,0,0,1,0,0,0,0,0
0.117999000,1,0,0,1,0,0,1,0,0,0,0,1
0.118499000,1,0,0,1,0,0,1,0,0,0,0,0
0.118915000,0,0,0,0,0,0,0,0,0,0,0,0
0.118922000,1,1,0,1,0,0,1,0,0,0,0,0
0.118999000,1,1,0,1,0,0,1,0,0,0,0,1
0.119499000,1,1,0,1,0,0,1,0,0,0,0,0
0.119915000,0,0,0,0,0,0,0,0,0,0,0,0
0.119922000,0,1,0,1,0,0,1,0,0,0,0,0
0.119999000,0,1,0,1,0,0,1,0,0,0,0,1
0.120499000,0,1,0,1,0,0,1,0,0,0,0,0
0.120915000,0,0,0,0,0,0,0,0,0,0,0,0
0.120922000,0,1,0,1,0,0,1,0,0,0,0,0
0.120999000,0,1,0,1,0,0,1,0,0,0,0,1
0.121499000,0,1,0,1,0,0,1,0,0,0,0,0
0.121915000,0,0,0,0,0,0,0,0,0,0,0,0
0.121922000,0,1,0,1,0,0,1,0,0,0,0,0
0.121999000,0,1,0,1,0,0,1,0,0,0,0,1
0.122499000,0,1,0,1,0,0,1,0,0,0,0,0
0.122915000,0,0,0,0,0,0,0,0,0,0,0,0
0.122922000,1,0,1,0,0,0,1,0,0,0,0,0
0.122999000,1,0,1,0,0,0,1,0,0,0,0,1
0.123499000,1,0,1,0,0,0,1,0,0,0,0,0
0.123915000,0,0,0,0,0,0,0,0,0,0,0,0
0.123922000,0,1,1,0,0,0,1,0,0,0,0,0
0.123999000,0,1,1,0,0,0,1,0,0,0,0,1
0.124499000,0,1,1,0,0,0,1,0,0,0,0,0
0.124915000,0,0,0,0,0,0,0,0,0,0,0,0
0.124922000,1,0,1,1,0,0,1,0,0,0,0,0
0.124999000,1,0,1,1,0,0,1,0,0,0,0,1
0.125499000,1,0,1,1,0,0,1,0,0,0,0,0
0.125915000,0,0,0,0,0,0,0,0,0,0,0,0
0.125922000,1,0,0,1,0,0,1,0,0,0,0,0
0.125999000,1,0,0,1,0,0,1,0,0,0,0,1
0.126499000,1,0,0,1,0,0,1,0,0,0,0,0
0.126915000,0,0,0,0,0,0,0,0,0,0,0,0
0.126922000,1,1,0,1,0,0,1,0,0,0,0,0
0.126999000,1,1,0,1,0,0,1,0,0,0,0,1
0.127499000,1,1,0,1,0,0,1,0,0,0,0,0
0.127915000,0,0,0,0,0,0,0,0,0,0,0,0
0.127922000,1,1,0,0,0,0,1,0,0,0,0,0
0.127999000,1,1,0,0,0,0,1,0,0,0,0,1
0.128499000,1,1,0,0,0,0,1,0,0,0,0,0
0.128915000,0,0,0,0,0,0,0,0,0,0,0,0
0.128922000,0,1,1,0,0,0,1,0,0,0,0,0
0.128999000,0,1,1,0,0,0,1,0,0,0,0,1
0.129499000,0,1,1,0,0,0,1,0,0,0,0,0
0.129915000,0,0,0,0,0,0,0,0,0,0,0,0
0.129922000,1,0,1,1,0,0,1,0,0,0,0,0
0.129999000,1,0,1,1,0,0,1,0,0,0,0,1
0.130499000,1,0,1,1,0,0,1,0,0,0,0,0
0.130915000,0,0,0,0,0,0,0,0,0,0,0,0
0.130922000,0,1,1,0,0,0,1,0,0,0,0,0
0.130999000,0,1,1,0,0,0,1,0,0,0,0,1
0.131499000,0,1,1,0,0,0,1,0,0,0,0,0
0.131915000,0,0,0,0,0,0,0,0,0,0,0,0
0.131922000,1,1,0,1,0,0,1,0,0,0,0,0
0.131999000,1,1,0,1,0,0,1,0,0,0,0,1
0.132499000,1,1,0,1,0,0,1,0,0,0,0,0
0.132915000,0,0,0,0,0,0,0,0,0,0,0,0
0.132922000,1,1,0,1,0,0,1,0,0,0,0,0
0.132999000,1,1,0,1,0,0,1,0,0,0,0,1
0.133499000,1,1,0,1,0,0,1,0,0,0,0,0
0.133915000,0,0,0,0,0,0,0,0,0,0,0,0
0.133922000,0,1,0,1,0,0,1,0,0,0,0,0
0.133999000,0,1,0,1,0,0,1,0,0,0,0,1
0.134499000,0,1,0,1,0,0,1,0,0,0,0,0
0.134915000,0,0,0,0,0,0,0,0,0,0,0,0
0.134922000,1,1,0,1,0,0,1,0,0,0,0,0
0.134999000,1,1,0,1,0,0,1,0,0,0,0,1
0.135499000,1,1,0,1,0,0,1,0,0,0,0,0
0.135915000,0,0,0,0,0,0,0,0,0,0,0,0
0.135922000,0,1,1,1,0,0,1,0,0,0,0,0
0.135999000,0,1,1,1,0,0,1,0,0,0,0,1
0.136499000,0,1,1,1,0,0,1,0,0,0,0,0
