Time [s],Channel 0,Channel 1,Channel 2,Channel 3,Channel 4,Channel 5,Channel 6,Channel 7,Channel 8,Channel 9,Channel 10,Channel 11
-0.000726000,0,0,0,0,0,0,0,0,0,0,1,1
-0.000500000,0,0,0,0,0,0,0,0,0,0,1,0
-0.000084000,0,0,0,0,0,0,0,0,0,0,0,0
-0.000079000,0,0,0,0,0,0,0,0,0,0,1,0
-0.000000000,0,0,0,0,0,0,0,0,0,0,1,1
0.000500000,0,0,0,0,0,0,0,0,0,0,1,0
0.000916000,0,0,0,0,0,0,0,0,0,0,0,0
0.000921000,0,0,0,0,0,0,0,0,0,0,1,0
0.001000000,0,0,0,0,0,0,0,0,0,0,1,1
0.001500000,0,0,0,0,0,0,0,0,0,0,1,0
0.001916000,0,0,0,0,0,0,0,0,0,0,0,0
0.001921000,0,0,0,0,0,0,0,0,0,0,1,0
0.002000000,0,0,0,0,0,0,0,0,0,0,1,1
0.002500000,0,0,0,0,0,0,0,0,0,0,1,0
0.002916000,0,0,0,0,0,0,0,0,0,0,0,0
0.002921000,0,0,0,0,0,0,0,0,0,0,1,0
0.003000000,0,0,0,0,0,0,0,0,0,0,1,1
0.003500000,0,0,0,0,0,0,0,0,0,0,1,0
0.003916000,0,0,0,0,0,0,0,0,0,0,0,0
0.003921000,0,0,0,0,0,0,0,0,0,0,1,0
0.004000000,0,0,0,0,0,0,0,0,0,0,1,1
0.004500000,0,0,0,0,0,0,0,0,0,0,1,0
0.004916000,0,0,0,0,0,0,0,0,0,0,0,0
0.004921000,0,0,0,0,0,0,0,0,0,0,1,0
0.005000000,0,0,0,0,0,0,0,0,0,0,1,1
0.005500000,0,0,0,0,0,0,0,0,0,0,1,0
0.005916000,0,0,0,0,0,0,0,0,0,0,0,0
0.005921000,1,0,1,0,1,0,0,0,0,0,1,0
0.006000000,1,0,1,0,1,0,0,0,0,0,1,1
0.006500000,1,0,1,0,1,0,0,0,0,0,1,0
0.006916000,0,0,0,0,0,0,0,0,0,0,0,0
0.006921000,0,0,0,0,0,0,0,0,0,0,1,0
0.007000000,0,0,0,0,0,0,0,0,0,0,1,1
0.007500000,0,0,0,0,0,0,0,0,0,0,1,0
0.007916000,0,0,0,0,0,0,0,0,0,0,0,0
0.007921000,0,0,0,0,0,0,0,1,0,0,1,0
0.008000000,0,0,0,0,0,0,0,1,0,0,1,1
0.008500000,0,0,0,0,0,0,0,1,0,0,1,0
0.008916000,0,0,0,0,0,0,0,0,0,0,0,0
0.008921000,0,0,0,0,0,0,0,0,0,0,1,0
0.009000000,0,0,0,0,0,0,0,0,0,0,1,1
0.009500000,0,0,0,0,0,0,0,0,0,0,1,0
0.009916000,0,0,0,0,0,0,0,0,0,0,0,0
0.009921000,1,0,1,0,1,0,0,1,0,0,1,0
0.010000000,1,0,1,0,1,0,0,1,0,0,1,1
0.010500000,1,0,1,0,1,0,0,1,0,0,1,0
0.010916000,0,0,0,0,0,0,0,0,0,0,0,0
0.010921000,0,0,0,0,0,0,0,0,0,0,1,0
0.011000000,0,0,0,0,0,0,0,0,0,0,1,1
0.011500000,0,0,0,0,0,0,0,0,0,0,1,0
0.011916000,0,0,0,0,0,0,0,0,0,0,0,0
0.011921000,0,1,0,0,0,0,0,1,0,0,1,0
0.012000000,0,1,0,0,0,0,0,1,0,0,1,1
0.012500000,0,1,0,0,0,0,0,1,0,0,1,0
0.012916000,0,0,0,0,0,0,0,0,0,0,0,0
0.012921000,0,0,0,0,0,0,0,0,0,0,1,0
0.013000000,0,0,0,0,0,0,0,0,0,0,1,1
0.013500000,0,0,0,0,0,0,0,0,0,0,1,0
0.013916000,0,0,0,0,0,0,0,0,0,0,0,0
0.013921000,0,0,0,0,0,0,0,0,0,0,1,0
0.014000000,0,0,0,0,0,0,0,0,0,0,1,1
0.014500000,0,0,0,0,0,0,0,0,0,0,1,0
0.014916000,0,0,0,0,0,0,0,0,0,0,0,0
0.014921000,0,0,0,0,0,1,0,0,0,0,1,0
0.015000000,0,0,0,0,0,1,0,0,0,0,1,1
0.015500000,0,0,0,0,0,1,0,0,0,0,1,0
0.015916000,0,0,0,0,0,0,0,0,0,0,0,0
0.015921000,0,0,0,0,0,0,0,0,0,0,1,0
0.016000000,0,0,0,0,0,0,0,0,0,0,1,1
0.016500000,0,0,0,0,0,0,0,0,0,0,1,0
0.016916000,0,0,0,0,0,0,0,0,0,0,0,0
0.016921000,0,0,0,0,0,0,0,0,0,0,1,0
0.017000000,0,0,0,0,0,0,0,0,0,0,1,1
0.017500000,0,0,0,0,0,0,0,0,0,0,1,0
0.017916000,0,0,0,0,0,0,0,0,0,0,0,0
0.017921000,0,0,0,0,0,0,0,0,0,0,1,0
0.018000000,0,0,0,0,0,0,0,0,0,0,1,1
0.018500000,0,0,0,0,0,0,0,0,0,0,1,0
0.018916000,0,0,0,0,0,0,0,0,0,0,0,0
0.018921000,0,1,0,0,1,0,0,0,0,0,1,0
0.019000000,0,1,0,0,1,0,0,0,0,0,1,1
0.019500000,0,1,0,0,1,0,0,0,0,0,1,0
0.019916000,0,0,0,0,0,0,0,0,0,0,0,0
0.019921000,0,0,0,0,0,0,0,0,0,0,1,0
0.020000000,0,0,0,0,0,0,0,0,0,0,1,1
0.020500000,0,0,0,0,0,0,0,0,0,0,1,0
0.020916000,0,0,0,0,0,0,0,0,0,0,0,0
0.020921000,0,1,0,0,1,0,0,0,0,0,1,0
0.021000000,0,1,0,0,1,0,0,0,0,0,1,1
0.021500000,0,1,0,0,1,0,0,0,0,0,1,0
0.021916000,0,0,0,0,0,0,0,0,0,0,0,0
0.021921000,0,0,0,0,0,0,0,0,0,0,1,0
0.022000000,0,0,0,0,0,0,0,0,0,0,1,1
0.022500000,0,0,0,0,0,0,0,0,0,0,1,0
0.022916000,0,0,0,0,0,0,0,0,0,0,0,0
0.022921000,1,1,1,1,0,1,0,0,0,0,1,0
0.023000000,1,1,1,1,0,1,0,0,0,0,1,1
0.023500000,1,1,1,1,0,1,0,0,0,0,1,0
0.023916000,0,0,0,0,0,0,0,0,0,0,0,0
0.023921000,0,0,0,0,0,0,0,0,0,0,1,0
0.024000000,0,0,0,0,0,0,0,0,0,0,1,1
0.024500000,0,0,0,0,0,0,0,0,0,0,1,0
0.024916000,0,0,0,0,0,0,0,0,0,0,0,0
0.024921000,0,0,0,0,0,0,0,0,0,0,1,0
0.025000000,0,0,0,0,0,0,0,0,0,0,1,1
0.025500000,0,0,0,0,0,0,0,0,0,0,1,0
0.025916000,0,0,0,0,0,0,0,0,0,0,0,0
0.025921000,0,0,0,0,0,0,0,0,0,0,1,0
0.026000000,0,0,0,0,0,0,0,0,0,0,1,1
0.026500000,0,0,0,0,0,0,0,0,0,0,1,0
0.026916000,0,0,0,0,0,0,0,0,0,0,0,0
0.026921000,0,0,0,0,0,0,0,0,0,0,1,0
0.027000000,0,0,0,0,0,0,0,0,0,0,1,1
0.027500000,0,0,0,0,0,0,0,0,0,0,1,0
0.027916000,0,0,0,0,0,0,0,0,0,0,0,0
0.027921000,0,0,0,0,0,0,0,0,0,0,1,0
0.028000000,0,0,0,0,0,0,0,0,0,0,1,1
0.028500000,0,0,0,0,0,0,0,0,0,0,1,0
0.028916000,0,0,0,0,0,0,0,0,0,0,0,0
0.028921000,0,0,0,0,0,0,0,0,0,0,1,0
0.029000000,0,0,0,0,0,0,0,0,0,0,1,1
0.029500000,0,0,0,0,0,0,0,0,0,0,1,0
0.029916000,0,0,0,0,0,0,0,0,0,0,0,0
0.029921000,0,0,0,0,0,0,0,0,0,0,1,0
0.030000000,0,0,0,0,0,0,0,0,0,0,1,1
0.030500000,0,0,0,0,0,0,0,0,0,0,1,0
0.030916000,0,0,0,0,0,0,0,0,0,0,0,0
0.030921000,0,0,0,0,0,0,0,0,0,0,1,0
0.031000000,0,0,0,0,0,0,0,0,0,0,1,1
0.031500000,0,0,0,0,0,0,0,0,0,0,1,0
0.031916000,0,0,0,0,0,0,0,0,0,0,0,0
0.031921000,0,0,0,0,0,0,0,0,0,0,1,0
0.032000000,0,0,0,0,0,0,0,0,0,0,1,1
0.032500000,0,0,0,0,0,0,0,0,0,0,1,0
0.032916000,0,0,0,0,0,0,0,0,0,0,0,0
0.032921000,0,0,0,0,0,0,0,0,0,0,1,0
0.033000000,0,0,0,0,0,0,0,0,0,0,1,1
0.033500000,0,0,0,0,0,0,0,0,0,0,1,0
0.033916000,0,0,0,0,0,0,0,0,0,0,0,0
0.033921000,0,0,0,0,0,0,0,0,0,0,1,0
0.034000000,0,0,0,0,0,0,0,0,0,0,1,1
0.034500000,0,0,0,0,0,0,0,0,0,0,1,0
0.034916000,0,0,0,0,0,0,0,0,0,0,0,0
0.034921000,0,0,0,0,0,0,0,0,0,0,1,0
0.035000000,0,0,0,0,0,0,0,0,0,0,1,1
0.035500000,0,0,0,0,0,0,0,0,0,0,1,0
0.035916000,0,0,0,0,0,0,0,0,0,0,0,0
0.035921000,0,0,0,0,0,0,0,0,0,0,1,0
0.036000000,0,0,0,0,0,0,0,0,0,0,1,1
0.036500000,0,0,0,0,0,0,0,0,0,0,1,0
0.036916000,0,0,0,0,0,0,0,0,0,0,0,0
0.036921000,0,0,0,0,0,0,0,0,0,0,1,0
0.037000000,0,0,0,0,0,0,0,0,0,0,1,1
0.037500000,0,0,0,0,0,0,0,0,0,0,1,0
0.037916000,0,0,0,0,0,0,0,0,0,0,0,0
0.037921000,1,1,0,1,0,0,0,0,0,0,1,0
0.038000000,1,1,0,1,0,0,0,0,0,0,1,1
0.038500000,1,1,0,1,0,0,0,0,0,0,1,0
0.038916000,0,0,0,0,0,0,0,0,0,0,0,0
0.038921000,0,0,0,0,0,0,0,0,0,0,1,0
0.039000000,0,0,0,0,0,0,0,0,0,0,1,1
0.039500000,0,0,0,0,0,0,0,0,0,0,1,0
0.039916000,0,0,0,0,0,0,0,0,0,0,0,0
0.039921000,0,0,0,0,0,0,0,0,0,0,1,0
0.040000000,0,0,0,0,0,0,0,0,0,0,1,1
0.040500000,0,0,0,0,0,0,0,0,0,0,1,0
0.040916000,0,0,0,0,0,0,0,0,0,0,0,0
0.040921000,0,0,0,0,0,0,0,0,0,0,1,0
0.041000000,0,0,0,0,0,0,0,0,0,0,1,1
0.041500000,0,0,0,0,0,0,0,0,0,0,1,0
0.041916000,0,0,0,0,0,0,0,0,0,0,0,0
0.041921000,0,0,0,0,0,1,0,0,0,0,1,0
0.042000000,0,0,0,0,0,1,0,0,0,0,1,1
0.042500000,0,0,0,0,0,1,0,0,0,0,1,0
0.042916000,0,0,0,0,0,0,0,0,0,0,0,0
0.042921000,0,0,0,0,0,0,0,0,0,0,1,0
0.043000000,0,0,0,0,0,0,0,0,0,0,1,1
0.043500000,0,0,0,0,0,0,0,0,0,0,1,0
0.043916000,0,0,0,0,0,0,0,0,0,0,0,0
0.043921000,0,0,0,0,0,0,0,0,0,0,1,0
0.044000000,0,0,0,0,0,0,0,0,0,0,1,1
0.044500000,0,0,0,0,0,0,0,0,0,0,1,0
0.044916000,0,0,0,0,0,0,0,0,0,0,0,0
0.044921000,0,0,0,0,0,0,0,0,0,0,1,0
0.045000000,0,0,0,0,0,0,0,0,0,0,1,1
0.045500000,0,0,0,0,0,0,0,0,0,0,1,0
0.045916000,0,0,0,0,0,0,0,0,0,0,0,0
0.045921000,0,0,0,0,0,0,0,0,0,0,1,0
0.046000000,0,0,0,0,0,0,0,0,0,0,1,1
0.046500000,0,0,0,0,0,0,0,0,0,0,1,0
0.046916000,0,0,0,0,0,0,0,0,0,0,0,0
0.046921000,0,0,0,0,1,0,0,0,0,0,1,0
0.047000000,0,0,0,0,1,0,0,0,0,0,1,1
0.047500000,0,0,0,0,1,0,0,0,0,0,1,0
0.047916000,0,0,0,0,0,0,0,0,0,0,0,0
0.047921000,0,0,0,0,0,0,0,0,0,0,1,0
0.047999000,0,0,0,0,0,0,0,0,0,0,1,1
0.048499000,0,0,0,0,0,0,0,0,0,0,1,0
0.048916000,0,0,0,0,0,0,0,0,0,0,0,0
0.048921000,0,0,0,0,0,0,0,0,0,0,1,0
0.048999000,0,0,0,0,0,0,0,0,0,0,1,1
0.049499000,0,0,0,0,0,0,0,0,0,0,1,0
0.049916000,0,0,0,0,0,0,0,0,0,0,0,0
0.049921000,0,0,0,0,0,0,0,0,0,0,1,0
0.049999000,0,0,0,0,0,0,0,0,0,0,1,1
0.050499000,0,0,0,0,0,0,0,0,0,0,1,0
0.050916000,0,0,0,0,0,0,0,0,0,0,0,0
0.050921000,0,0,0,1,0,0,0,0,0,0,1,0
0.050999000,0,0,0,1,0,0,0,0,0,0,1,1
0.051499000,0,0,0,1,0,0,0,0,0,0,1,0
0.051916000,0,0,0,0,0,0,0,0,0,0,0,0
0.051921000,0,0,0,0,0,0,0,0,0,0,1,0
0.051999000,0,0,0,0,0,0,0,0,0,0,1,1
0.052499000,0,0,0,0,0,0,0,0,0,0,1,0
0.052916000,0,0,0,0,0,0,0,0,0,0,0,0
0.052921000,0,0,0,0,0,0,0,0,0,0,1,0
0.052999000,0,0,0,0,0,0,0,0,0,0,1,1
0.053499000,0,0,0,0,0,0,0,0,0,0,1,0
0.053916000,0,0,0,0,0,0,0,0,0,0,0,0
0.053921000,0,0,0,0,0,0,0,0,0,0,1,0
0.053999000,0,0,0,0,0,0,0,0,0,0,1,1
0.054499000,0,0,0,0,0,0,0,0,0,0,1,0
0.054916000,0,0,0,0,0,0,0,0,0,0,0,0
0.054921000,0,0,0,0,0,0,0,0,0,0,1,0
0.054999000,0,0,0,0,0,0,0,0,0,0,1,1
0.055499000,0,0,0,0,0,0,0,0,0,0,1,0
0.055916000,0,0,0,0,0,0,0,0,0,0,0,0
0.055921000,0,0,0,0,0,0,0,0,0,0,1,0
0.055999000,0,0,0,0,0,0,0,0,0,0,1,1
0.056499000,0,0,0,0,0,0,0,0,0,0,1,0
0.056916000,0,0,0,0,0,0,0,0,0,0,0,0
0.056921000,0,0,0,0,0,0,0,0,0,0,1,0
0.056999000,0,0,0,0,0,0,0,0,0,0,1,1
0.057499000,0,0,0,0,0,0,0,0,0,0,1,0
0.057916000,0,0,0,0,0,0,0,0,0,0,0,0
0.057921000,0,1,0,1,0,1,0,0,0,0,1,0
0.057999000,0,1,0,1,0,1,0,0,0,0,1,1
0.058499000,0,1,0,1,0,1,0,0,0,0,1,0
0.058916000,0,0,0,0,0,0,0,0,0,0,0,0
0.058921000,0,0,0,0,0,0,0,0,0,0,1,0
0.058999000,0,0,0,0,0,0,0,0,0,0,1,1
0.059499000,0,0,0,0,0,0,0,0,0,0,1,0
0.059916000,0,0,0,0,0,0,0,0,0,0,0,0
0.059921000,0,0,0,0,0,0,0,0,0,0,1,0
0.059999000,0,0,0,0,0,0,0,0,0,0,1,1
0.060499000,0,0,0,0,0,0,0,0,0,0,1,0
0.060916000,0,0,0,0,0,0,0,0,0,0,0,0
0.060921000,0,0,0,0,0,0,0,0,0,0,1,0
0.060999000,0,0,0,0,0,0,0,0,0,0,1,1
0.061499000,0,0,0,0,0,0,0,0,0,0,1,0
0.061916000,0,0,0,0,0,0,0,0,0,0,0,0
0.061921000,0,0,0,0,0,0,0,0,0,0,1,0
0.061999000,0,0,0,0,0,0,0,0,0,0,1,1
0.062499000,0,0,0,0,0,0,0,0,0,0,1,0
0.062916000,0,0,0,0,0,0,0,0,0,0,0,0
0.062921000,0,0,0,0,0,0,0,0,0,0,1,0
0.062999000,0,0,0,0,0,0,0,0,0,0,1,1
0.063499000,0,0,0,0,0,0,0,0,0,0,1,0
0.063916000,0,0,0,0,0,0,0,0,0,0,0,0
0.063921000,0,0,0,0,0,0,0,0,0,0,1,0
0.063999000,0,0,0,0,0,0,0,0,0,0,1,1
0.064499000,0,0,0,0,0,0,0,0,0,0,1,0
0.064916000,0,0,0,0,0,0,0,0,0,0,0,0
0.064921000,0,0,0,0,0,0,0,0,0,0,1,0
0.064999000,0,0,0,0,0,0,0,0,0,0,1,1
0.065499000,0,0,0,0,0,0,0,0,0,0,1,0
0.065916000,0,0,0,0,0,0,0,0,0,0,0,0
0.065921000,0,0,0,0,0,0,0,0,0,0,1,0
0.065999000,0,0,0,0,0,0,0,0,0,0,1,1
0.066499000,0,0,0,0,0,0,0,0,0,0,1,0
0.066916000,0,0,0,0,0,0,0,0,0,0,0,0
0.066921000,0,0,0,0,0,0,0,0,0,0,1,0
0.066999000,0,0,0,0,0,0,0,0,0,0,1,1
0.067499000,0,0,0,0,0,0,0,0,0,0,1,0
0.067916000,0,0,0,0,0,0,0,0,0,0,0,0
0.067921000,0,0,0,0,0,0,0,0,0,0,1,0
0.067999000,0,0,0,0,0,0,0,0,0,0,1,1
0.068499000,0,0,0,0,0,0,0,0,0,0,1,0
0.068916000,0,0,0,0,0,0,0,0,0,0,0,0
0.068921000,0,0,0,0,0,0,0,0,0,0,1,0
0.068999000,0,0,0,0,0,0,0,0,0,0,1,1
0.069499000,0,0,0,0,0,0,0,0,0,0,1,0
0.069916000,0,0,0,0,0,0,0,0,0,0,0,0
0.069921000,0,0,0,0,0,0,0,0,0,0,1,0
0.069999000,0,0,0,0,0,0,0,0,0,0,1,1
0.070499000,0,0,0,0,0,0,0,0,0,0,1,0
0.070916000,0,0,0,0,0,0,0,0,0,0,0,0
0.070921000,0,0,0,0,0,0,0,0,0,0,1,0
0.070999000,0,0,0,0,0,0,0,0,0,0,1,1
0.071499000,0,0,0,0,0,0,0,0,0,0,1,0
0.071916000,0,0,0,0,0,0,0,0,0,0,0,0
0.071921000,0,0,0,0,0,0,0,0,0,0,1,0
0.071999000,0,0,0,0,0,0,0,0,0,0,1,1
0.072499000,0,0,0,0,0,0,0,0,0,0,1,0
0.072916000,0,0,0,0,0,0,0,0,0,0,0,0
0.072921000,0,0,0,0,0,0,0,0,0,0,1,0
0.072999000,0,0,0,0,0,0,0,0,0,0,1,1
0.073499000,0,0,0,0,0,0,0,0,0,0,1,0
0.073916000,0,0,0,0,0,0,0,0,0,0,0,0
0.073921000,0,0,0,1,0,0,0,0,0,0,1,0
0.073999000,0,0,0,1,0,0,0,0,0,0,1,1
0.074499000,0,0,0,1,0,0,0,0,0,0,1,0
0.074916000,0,0,0,0,0,0,0,0,0,0,0,0
0.074921000,0,0,0,0,0,0,0,0,0,0,1,0
0.074999000,0,0,0,0,0,0,0,0,0,0,1,1
0.075499000,0,0,0,0,0,0,0,0,0,0,1,0
0.075916000,0,0,0,0,0,0,0,0,0,0,0,0
0.075921000,0,0,0,0,0,0,0,0,0,0,1,0
0.075999000,0,0,0,0,0,0,0,0,0,0,1,1
0.076499000,0,0,0,0,0,0,0,0,0,0,1,0
0.076916000,0,0,0,0,0,0,0,0,0,0,0,0
0.076921000,0,0,0,0,0,0,0,0,0,0,1,0
0.076999000,0,0,0,0,0,0,0,0,0,0,1,1
0.077499000,0,0,0,0,0,0,0,0,0,0,1,0
0.077916000,0,0,0,0,0,0,0,0,0,0,0,0
0.077921000,0,0,0,0,0,0,0,0,0,0,1,0
0.077999000,0,0,0,0,0,0,0,0,0,0,1,1
0.078499000,0,0,0,0,0,0,0,0,0,0,1,0
0.078916000,0,0,0,0,0,0,0,0,0,0,0,0
0.078921000,0,0,0,0,0,0,0,0,0,0,1,0
0.078999000,0,0,0,0,0,0,0,0,0,0,1,1
0.079499000,0,0,0,0,0,0,0,0,0,0,1,0
0.079916000,0,0,0,0,0,0,0,0,0,0,0,0
0.079921000,0,0,0,0,0,0,0,0,0,0,1,0
0.079999000,0,0,0,0,0,0,0,0,0,0,1,1
0.080499000,0,0,0,0,0,0,0,0,0,0,1,0
0.080916000,0,0,0,0,0,0,0,0,0,0,0,0
0.080921000,0,0,0,0,0,0,0,0,0,0,1,0
0.080999000,0,0,0,0,0,0,0,0,0,0,1,1
0.081499000,0,0,0,0,0,0,0,0,0,0,1,0
0.081916000,0,0,0,0,0,0,0,0,0,0,0,0
0.081921000,0,0,0,0,0,0,0,0,0,0,1,0
0.081999000,0,0,0,0,0,0,0,0,0,0,1,1
0.082499000,0,0,0,0,0,0,0,0,0,0,1,0
0.082916000,0,0,0,0,0,0,0,0,0,0,0,0
0.082921000,0,0,0,0,0,0,0,0,0,0,1,0
0.082999000,0,0,0,0,0,0,0,0,0,0,1,1
0.083499000,0,0,0,0,0,0,0,0,0,0,1,0
0.083916000,0,0,0,0,0,0,0,0,0,0,0,0
0.083921000,0,0,0,0,0,0,0,0,0,0,1,0
0.083999000,0,0,0,0,0,0,0,0,0,0,1,1
0.084499000,0,0,0,0,0,0,0,0,0,0,1,0
0.084916000,0,0,0,0,0,0,0,0,0,0,0,0
0.084921000,0,0,0,0,0,0,0,0,0,0,1,0
0.084999000,0,0,0,0,0,0,0,0,0,0,1,1
0.085499000,0,0,0,0,0,0,0,0,0,0,1,0
0.085916000,0,0,0,0,0,0,0,0,0,0,0,0
0.085921000,0,1,0,0,0,0,0,0,0,0,1,0
0.085999000,0,1,0,0,0,0,0,0,0,0,1,1
0.086499000,0,1,0,0,0,0,0,0,0,0,1,0
0.086916000,0,0,0,0,0,0,0,0,0,0,0,0
0.086921000,0,0,0,0,0,0,0,0,0,0,1,0
0.086999000,0,0,0,0,0,0,0,0,0,0,1,1
0.087499000,0,0,0,0,0,0,0,0,0,0,1,0
0.087916000,0,0,0,0,0,0,0,0,0,0,0,0
0.087921000,0,0,0,0,0,0,0,0,0,0,1,0
0.087999000,0,0,0,0,0,0,0,0,0,0,1,1
0.088499000,0,0,0,0,0,0,0,0,0,0,1,0
0.088916000,0,0,0,0,0,0,0,0,0,0,0,0
0.088921000,0,0,0,0,0,0,0,0,0,0,1,0
0.088999000,0,0,0,0,0,0,0,0,0,0,1,1
0.089499000,0,0,0,0,0,0,0,0,0,0,1,0
0.089916000,0,0,0,0,0,0,0,0,0,0,0,0
0.089921000,0,0,0,0,0,0,0,0,0,0,1,0
0.089999000,0,0,0,0,0,0,0,0,0,0,1,1
0.090499000,0,0,0,0,0,0,0,0,0,0,1,0
0.090916000,0,0,0,0,0,0,0,0,0,0,0,0
0.090921000,0,0,0,0,0,0,0,0,0,0,1,0
0.090999000,0,0,0,0,0,0,0,0,0,0,1,1
0.091499000,0,0,0,0,0,0,0,0,0,0,1,0
0.091916000,0,0,0,0,0,0,0,0,0,0,0,0
0.091921000,0,0,0,0,0,0,0,0,0,0,1,0
0.091999000,0,0,0,0,0,0,0,0,0,0,1,1
0.092499000,0,0,0,0,0,0,0,0,0,0,1,0
0.092916000,0,0,0,0,0,0,0,0,0,0,0,0
0.092921000,0,0,0,0,0,0,0,0,0,0,1,0
0.092999000,0,0,0,0,0,0,0,0,0,0,1,1
0.093499000,0,0,0,0,0,0,0,0,0,0,1,0
0.093916000,0,0,0,0,0,0,0,0,0,0,0,0
0.093921000,0,0,0,0,0,0,0,0,0,0,1,0
0.093999000,0,0,0,0,0,0,0,0,0,0,1,1
0.094499000,0,0,0,0,0,0,0,0,0,0,1,0
0.094916000,0,0,0,0,0,0,0,0,0,0,0,0
0.094921000,0,0,0,0,0,0,0,0,0,0,1,0
0.094999000,0,0,0,0,0,0,0,0,0,0,1,1
0.095499000,0,0,0,0,0,0,0,0,0,0,1,0
0.095916000,0,0,0,0,0,0,0,0,0,0,0,0
0.095921000,0,0,0,0,0,0,0,0,0,0,1,0
0.095999000,0,0,0,0,0,0,0,0,0,0,1,1
0.096499000,0,0,0,0,0,0,0,0,0,0,1,0
0.096916000,0,0,0,0,0,0,0,0,0,0,0,0
0.096921000,0,0,0,0,0,1,0,0,0,0,1,0
0.096999000,0,0,0,0,0,1,0,0,0,0,1,1
0.097499000,0,0,0,0,0,1,0,0,0,0,1,0
0.097916000,0,0,0,0,0,0,0,0,0,0,0,0
0.097921000,0,0,0,0,0,0,0,0,0,0,1,0
0.097999000,0,0,0,0,0,0,0,0,0,0,1,1
0.098499000,0,0,0,0,0,0,0,0,0,0,1,0
0.098916000,0,0,0,0,0,0,0,0,0,0,0,0
0.098921000,1,0,1,0,0,0,1,0,0,0,1,0
0.098999000,1,0,1,0,0,0,1,0,0,0,1,1
0.099499000,1,0,1,0,0,0,1,0,0,0,1,0
0.099916000,0,0,0,0,0,0,0,0,0,0,0,0
0.099921000,0,0,0,0,0,0,0,0,0,0,1,0
0.099999000,0,0,0,0,0,0,0,0,0,0,1,1
0.100499000,0,0,0,0,0,0,0,0,0,0,1,0
0.100916000,0,0,0,0,0,0,0,0,0,0,0,0
0.100921000,0,0,1,0,0,0,1,0,0,0,1,0
0.100999000,0,0,1,0,0,0,1,0,0,0,1,1
0.101499000,0,0,1,0,0,0,1,0,0,0,1,0
0.101916000,0,0,0,0,0,0,0,0,0,0,0,0
0.101921000,0,0,0,0,0,0,0,0,0,0,1,0
0.101999000,0,0,0,0,0,0,0,0,0,0,1,1
0.102499000,0,0,0,0,0,0,0,0,0,0,1,0
0.102916000,0,0,0,0,0,0,0,0,0,0,0,0
0.102921000,0,0,0,0,0,0,0,0,0,0,1,0
0.102999000,0,0,0,0,0,0,0,0,0,0,1,1
0.103499000,0,0,0,0,0,0,0,0,0,0,1,0
0.103916000,0,0,0,0,0,0,0,0,0,0,0,0
0.103921000,0,0,0,0,1,0,0,0,0,0,1,0
0.103999000,0,0,0,0,1,0,0,0,0,0,1,1
0.104499000,0,0,0,0,1,0,0,0,0,0,1,0
0.104916000,0,0,0,0,0,0,0,0,0,0,0,0
0.104921000,0,0,0,0,0,0,0,0,0,0,1,0
0.104999000,0,0,0,0,0,0,0,0,0,0,1,1
0.105499000,0,0,0,0,0,0,0,0,0,0,1,0
0.105916000,0,0,0,0,0,0,0,0,0,0,0,0
0.105921000,0,0,0,1,0,0,0,0,0,0,1,0
0.105999000,0,0,0,1,0,0,0,0,0,0,1,1
0.106499000,0,0,0,1,0,0,0,0,0,0,1,0
0.106916000,0,0,0,0,0,0,0,0,0,0,0,0
0.106921000,0,0,0,1,0,0,0,0,0,0,1,0
0.106999000,0,0,0,1,0,0,0,0,0,0,1,1
0.107499000,0,0,0,1,0,0,0,0,0,0,1,0
0.107916000,0,0,0,0,0,0,0,0,0,0,0,0
0.107921000,0,0,0,0,0,0,0,0,0,0,1,0
0.107999000,0,0,0,0,0,0,0,0,0,0,1,1
0.108499000,0,0,0,0,0,0,0,0,0,0,1,0
0.108916000,0,0,0,0,0,0,0,0,0,0,0,0
0.108921000,0,1,0,0,1,0,0,0,0,0,1,0
0.108999000,0,1,0,0,1,0,0,0,0,0,1,1
0.109499000,0,1,0,0,1,0,0,0,0,0,1,0
0.109916000,0,0,0,0,0,0,0,0,0,0,0,0
0.109921000,0,0,0,0,0,0,0,0,0,0,1,0
0.109999000,0,0,0,0,0,0,0,0,0,0,1,1
0.110499000,0,0,0,0,0,0,0,0,0,0,1,0
0.110916000,0,0,0,0,0,0,0,0,0,0,0,0
0.110921000,0,0,0,0,0,0,0,0,0,0,1,0
0.110999000,0,0,0,0,0,0,0,0,0,0,1,1
0.111499000,0,0,0,0,0,0,0,0,0,0,1,0
0.111916000,0,0,0,0,0,0,0,0,0,0,0,0
0.111921000,0,0,0,0,0,0,0,0,0,0,1,0
0.111999000,0,0,0,0,0,0,0,0,0,0,1,1
0.112499000,0,0,0,0,0,0,0,0,0,0,1,0
0.112916000,0,0,0,0,0,0,0,0,0,0,0,0
0.112921000,1,0,0,1,0,0,0,0,0,0,1,0
0.112999000,1,0,0,1,0,0,0,0,0,0,1,1
0.113499000,1,0,0,1,0,0,0,0,0,0,1,0
0.113916000,0,0,0,0,0,0,0,0,0,0,0,0
0.113921000,0,0,1,0,0,0,0,0,0,0,1,0
0.113999000,0,0,1,0,0,0,0,0,0,0,1,1
0.114499000,0,0,1,0,0,0,0,0,0,0,1,0
0.114916000,0,0,0,0,0,0,0,0,0,0,0,0
0.114921000,0,0,0,0,0,0,0,0,0,0,1,0
0.114999000,0,0,0,0,0,0,0,0,0,0,1,1
0.115499000,0,0,0,0,0,0,0,0,0,0,1,0
0.115916000,0,0,0,0,0,0,0,0,0,0,0,0
0.115921000,0,0,0,0,0,0,0,0,0,0,1,0
0.115999000,0,0,0,0,0,0,0,0,0,0,1,1
0.116499000,0,0,0,0,0,0,0,0,0,0,1,0
0.116916000,0,0,0,0,0,0,0,0,0,0,0,0
0.116921000,0,0,0,0,0,0,0,0,0,0,1,0
0.116999000,0,0,0,0,0,0,0,0,0,0,1,1
0.117499000,0,0,0,0,0,0,0,0,0,0,1,0
0.117916000,0,0,0,0,0,0,0,0,0,0,0,0
0.117921000,0,0,0,0,0,0,0,0,0,0,1,0
0.117999000,0,0,0,0,0,0,0,0,0,0,1,1
0.118499000,0,0,0,0,0,0,0,0,0,0,1,0
0.118916000,0,0,0,0,0,0,0,0,0,0,0,0
0.118921000,0,0,0,0,0,0,0,0,0,0,1,0
0.118999000,0,0,0,0,0,0,0,0,0,0,1,1
0.119499000,0,0,0,0,0,0,0,0,0,0,1,0
0.119916000,0,0,0,0,0,0,0,0,0,0,0,0
0.119921000,0,0,0,0,0,0,0,0,0,0,1,0
0.119999000,0,0,0,0,0,0,0,0,0,0,1,1
0.120499000,0,0,0,0,0,0,0,0,0,0,1,0
0.120916000,0,0,0,0,0,0,0,0,0,0,0,0
0.120921000,0,0,1,1,0,0,0,0,0,0,1,0
0.120999000,0,0,1,1,0,0,0,0,0,0,1,1
0.121499000,0,0,1,1,0,0,0,0,0,0,1,0
0.121916000,0,0,0,0,0,0,0,0,0,0,0,0
0.121921000,0,0,0,0,0,0,0,0,0,0,1,0
0.121999000,0,0,0,0,0,0,0,0,0,0,1,1
0.122499000,0,0,0,0,0,0,0,0,0,0,1,0
0.122916000,0,0,0,0,0,0,0,0,0,0,0,0
0.122921000,0,0,1,0,0,0,0,0,0,0,1,0
0.122999000,0,0,1,0,0,0,0,0,0,0,1,1
0.123499000,0,0,1,0,0,0,0,0,0,0,1,0
0.123916000,0,0,0,0,0,0,0,0,0,0,0,0
0.123921000,0,0,0,0,0,0,0,0,0,0,1,0
0.123999000,0,0,0,0,0,0,0,0,0,0,1,1
0.124499000,0,0,0,0,0,0,0,0,0,0,1,0
0.124916000,0,0,0,0,0,0,0,0,0,0,0,0
0.124921000,0,0,0,0,0,0,0,0,0,0,1,0
0.124999000,0,0,0,0,0,0,0,0,0,0,1,1
0.125499000,0,0,0,0,0,0,0,0,0,0,1,0
0.125916000,0,0,0,0,0,0,0,0,0,0,0,0
0.125921000,0,0,0,0,0,0,0,0,0,0,1,0
0.125999000,0,0,0,0,0,0,0,0,0,0,1,1
0.126499000,0,0,0,0,0,0,0,0,0,0,1,0
0.126916000,0,0,0,0,0,0,0,0,0,0,0,0
0.126921000,1,0,0,0,0,0,0,0,0,0,1,0
0.126999000,1,0,0,0,0,0,0,0,0,0,1,1
0.127499000,1,0,0,0,0,0,0,0,0,0,1,0
0.127916000,0,0,0,0,0,0,0,0,0,0,0,0
0.127921000,0,0,0,0,0,1,0,0,0,0,1,0
0.127999000,0,0,0,0,0,1,0,0,0,0,1,1
0.128499000,0,0,0,0,0,1,0,0,0,0,1,0
0.128916000,0,0,0,0,0,0,0,0,0,0,0,0
0.128921000,0,0,0,0,1,0,0,0,0,0,1,0
0.128999000,0,0,0,0,1,0,0,0,0,0,1,1
0.129499000,0,0,0,0,1,0,0,0,0,0,1,0
0.129916000,0,0,0,0,0,0,0,0,0,0,0,0
0.129921000,0,0,0,0,0,0,0,0,0,0,1,0
0.129999000,0,0,0,0,0,0,0,0,0,0,1,1
0.130499000,0,0,0,0,0,0,0,0,0,0,1,0
0.130916000,0,0,0,0,0,0,0,0,0,0,0,0
0.130921000,0,0,0,0,0,0,0,0,0,0,1,0
0.130999000,0,0,0,0,0,0,0,0,0,0,1,1
0.131499000,0,0,0,0,0,0,0,0,0,0,1,0
0.131916000,0,0,0,0,0,0,0,0,0,0,0,0
0.131921000,0,0,0,0,0,0,0,0,0,0,1,0
0.131999000,0,0,0,0,0,0,0,0,0,0,1,1
0.132499000,0,0,0,0,0,0,0,0,0,0,1,0
0.132916000,0,0,0,0,0,0,0,0,0,0,0,0
0.132921000,0,0,0,0,0,0,0,0,0,0,1,0
0.132999000,0,0,0,0,0,0,0,0,0,0,1,1
0.133499000,0,0,0,0,0,0,0,0,0,0,1,0
0.133916000,0,0,0,0,0,0,0,0,0,0,0,0
0.133921000,0,0,0,0,0,0,0,0,0,0,1,0
0.133999000,0,0,0,0,0,0,0,0,0,0,1,1
0.134499000,0,0,0,0,0,0,0,0,0,0,1,0
0.134916000,0,0,0,0,0,0,0,0,0,0,0,0
0.134921000,0,0,0,0,1,0,0,0,0,0,1,0
0.134999000,0,0,0,0,1,0,0,0,0,0,1,1
0.135499000,0,0,0,0,1,0,0,0,0,0,1,0
0.135916000,0,0,0,0,0,0,0,0,0,0,0,0
0.135921000,0,0,0,0,0,0,0,0,0,0,1,0
0.135999000,0,0,0,0,0,0,0,0,0,0,1,1
0.136499000,0,0,0,0,0,0,0,0,0,0,1,0
0.136916000,0,0,0,0,0,0,0,0,0,0,0,0
