Time [s],Channel 0,Channel 1,Channel 2,Channel 3,Channel 4,Channel 5,Channel 6,Channel 7,Channel 8,Channel 9,Channel 10,Channel 11
-0.000582000,1,1,1,0,0,1,1,1,1,1,1,1
-0.000500000,1,1,1,0,0,1,1,1,1,1,1,0
-0.000083000,0,0,0,0,0,0,0,0,0,0,0,0
-0.000077000,0,0,0,1,0,1,1,1,1,1,1,0
0.000000000,0,0,0,1,0,1,1,1,1,1,1,1
0.000500000,0,0,0,1,0,1,1,1,1,1,1,0
0.000917000,0,0,0,0,0,0,0,0,0,0,0,0
0.000923000,1,0,1,0,0,1,1,1,1,1,1,0
0.001000000,1,0,1,0,0,1,1,1,1,1,1,1
0.001500000,1,0,1,0,0,1,1,1,1,1,1,0
0.001917000,0,0,0,0,0,0,0,0,0,0,0,0
0.001923000,0,1,0,1,1,0,1,1,1,1,1,0
0.002000000,0,1,0,1,1,0,1,1,1,1,1,1
0.002500000,0,1,0,1,1,0,1,1,1,1,1,0
0.002917000,0,0,0,0,0,0,0,0,0,0,0,0
0.002923000,0,1,0,0,0,1,1,1,1,1,1,0
0.003000000,0,1,0,0,0,1,1,1,1,1,1,1
0.003500000,0,1,0,0,0,1,1,1,1,1,1,0
0.003917000,0,0,0,0,0,0,0,0,0,0,0,0
0.003923000,0,0,0,0,0,1,1,1,1,1,1,0
0.004000000,0,0,0,0,0,1,1,1,1,1,1,1
0.004500000,0,0,0,0,0,1,1,1,1,1,1,0
0.004917000,0,0,0,0,0,0,0,0,0,0,0,0
0.004923000,0,0,1,0,0,1,1,1,1,1,1,0
0.005000000,0,0,1,0,0,1,1,1,1,1,1,1
0.005500000,0,0,1,0,0,1,1,1,1,1,1,0
0.005917000,0,0,0,0,0,0,0,0,0,0,0,0
0.005923000,1,1,0,0,0,1,1,1,1,1,1,0
0.006000000,1,1,0,0,0,1,1,1,1,1,1,1
0.006500000,1,1,0,0,0,1,1,1,1,1,1,0
0.006917000,0,0,0,0,0,0,0,0,0,0,0,0
0.006923000,1,0,0,0,0,1,1,1,1,1,1,0
0.007000000,1,0,0,0,0,1,1,1,1,1,1,1
0.007500000,1,0,0,0,0,1,1,1,1,1,1,0
0.007917000,0,0,0,0,0,0,0,0,0,0,0,0
0.007923000,0,1,0,1,1,0,1,1,1,1,1,0
0.008000000,0,1,0,1,1,0,1,1,1,1,1,1
0.008500000,0,1,0,1,1,0,1,1,1,1,1,0
0.008917000,0,0,0,0,0,0,0,0,0,0,0,0
0.008923000,1,0,0,0,0,1,1,1,1,1,1,0
0.009000000,1,0,0,0,0,1,1,1,1,1,1,1
0.009500000,1,0,0,0,0,1,1,1,1,1,1,0
0.009917000,0,0,0,0,0,0,0,0,0,0,0,0
0.009923000,0,1,0,1,1,0,1,1,1,1,1,0
0.010000000,0,1,0,1,1,0,1,1,1,1,1,1
0.010500000,0,1,0,1,1,0,1,1,1,1,1,0
0.010917000,0,0,0,0,0,0,0,0,0,0,0,0
0.010923000,1,0,0,0,0,1,1,1,1,1,1,0
0.011000000,1,0,0,0,0,1,1,1,1,1,1,1
0.011500000,1,0,0,0,0,1,1,1,1,1,1,0
0.011917000,0,0,0,0,0,0,0,0,0,0,0,0
0.011923000,1,1,0,1,1,0,1,1,1,1,1,0
0.012000000,1,1,0,1,1,0,1,1,1,1,1,1
0.012500000,1,1,0,1,1,0,1,1,1,1,1,0
0.012917000,0,0,0,0,0,0,0,0,0,0,0,0
0.012923000,0,1,0,0,0,1,1,1,1,1,1,0
0.013000000,0,1,0,0,0,1,1,1,1,1,1,1
0.013500000,0,1,0,0,0,1,1,1,1,1,1,0
0.013917000,0,0,0,0,0,0,0,0,0,0,0,0
0.013923000,0,0,1,0,0,1,1,1,1,1,1,0
0.014000000,0,0,1,0,0,1,1,1,1,1,1,1
0.014500000,0,0,1,0,0,1,1,1,1,1,1,0
0.014917000,0,0,0,0,0,0,0,0,0,0,0,0
0.014923000,1,0,0,0,0,1,1,1,1,1,1,0
0.015000000,1,0,0,0,0,1,1,1,1,1,1,1
0.015500000,1,0,0,0,0,1,1,1,1,1,1,0
0.015917000,0,0,0,0,0,0,0,0,0,0,0,0
0.015923000,1,1,0,0,0,1,1,1,1,1,1,0
0.016000000,1,1,0,0,0,1,1,1,1,1,1,1
0.016500000,1,1,0,0,0,1,1,1,1,1,1,0
0.016917000,0,0,0,0,0,0,0,0,0,0,0,0
0.016923000,1,0,1,0,0,1,1,1,1,1,1,0
0.017000000,1,0,1,0,0,1,1,1,1,1,1,1
0.017500000,1,0,1,0,0,1,1,1,1,1,1,0
0.017917000,0,0,0,0,0,0,0,0,0,0,0,0
0.017923000,0,1,0,1,1,0,1,1,1,1,1,0
0.018000000,0,1,0,1,1,0,1,1,1,1,1,1
0.018500000,0,1,0,1,1,0,1,1,1,1,1,0
0.018917000,0,0,0,0,0,0,0,0,0,0,0,0
0.018923000,0,1,1,0,0,1,1,1,1,1,1,0
0.019000000,0,1,1,0,0,1,1,1,1,1,1,1
0.019500000,0,1,1,0,0,1,1,1,1,1,1,0
0.019917000,0,0,0,0,0,0,0,0,0,0,0,0
0.019922000,0,0,0,0,0,1,0,1,1,1,0,0
0.019923000,1,0,1,0,0,1,1,1,1,1,1,0
0.020000000,1,0,1,0,0,1,1,1,1,1,1,1
0.020500000,1,0,1,0,0,1,1,1,1,1,1,0
0.020917000,0,0,0,0,0,0,0,0,0,0,0,0
0.020922000,0,0,0,0,0,1,1,1,1,1,0,0
0.020923000,1,1,0,0,0,1,1,1,1,1,1,0
0.021000000,1,1,0,0,0,1,1,1,1,1,1,1
0.021500000,1,1,0,0,0,1,1,1,1,1,1,0
0.021917000,0,0,0,0,0,0,0,0,0,0,0,0
0.021922000,0,1,0,0,0,1,1,1,1,1,1,0
0.022000000,0,1,0,0,0,1,1,1,1,1,1,1
0.022500000,0,1,0,0,0,1,1,1,1,1,1,0
0.022917000,0,0,0,0,0,0,0,0,0,0,0,0
0.022922000,0,0,1,0,0,1,1,1,1,1,1,0
0.023000000,0,0,1,0,0,1,1,1,1,1,1,1
0.023500000,0,0,1,0,0,1,1,1,1,1,1,0
0.023917000,0,0,0,0,0,0,0,0,0,0,0,0
0.023922000,0,0,0,0,0,1,1,1,1,1,1,0
0.023923000,1,0,0,0,0,1,1,1,1,1,1,0
0.024000000,1,0,0,0,0,1,1,1,1,1,1,1
0.024500000,1,0,0,0,0,1,1,1,1,1,1,0
0.024917000,0,0,0,0,0,0,0,0,0,0,0,0
0.024922000,0,1,0,0,0,1,1,1,1,1,1,0
0.025000000,0,1,0,0,0,1,1,1,1,1,1,1
0.025500000,0,1,0,0,0,1,1,1,1,1,1,0
0.025917000,0,0,0,0,0,0,0,0,0,0,0,0
0.025922000,0,0,1,0,0,1,1,1,1,1,1,0
0.026000000,0,0,1,0,0,1,1,1,1,1,1,1
0.026500000,0,0,1,0,0,1,1,1,1,1,1,0
0.026917000,0,0,0,0,0,0,0,0,0,0,0,0
0.026922000,1,1,0,1,1,0,1,1,1,1,1,0
0.027000000,1,1,0,1,1,0,1,1,1,1,1,1
0.027500000,1,1,0,1,1,0,1,1,1,1,1,0
0.027917000,0,0,0,0,0,0,0,0,0,0,0,0
0.027922000,0,0,1,0,0,1,1,1,1,1,1,0
0.028000000,0,0,1,0,0,1,1,1,1,1,1,1
0.028500000,0,0,1,0,0,1,1,1,1,1,1,0
0.028917000,0,0,0,0,0,0,0,0,0,0,0,0
0.028922000,0,0,0,0,0,1,1,1,1,1,1,0
0.029000000,0,0,0,0,0,1,1,1,1,1,1,1
0.029500000,0,0,0,0,0,1,1,1,1,1,1,0
0.029917000,0,0,0,0,0,0,0,0,0,0,0,0
0.029922000,1,1,0,0,0,1,1,1,1,1,1,0
0.030000000,1,1,0,0,0,1,1,1,1,1,1,1
0.030500000,1,1,0,0,0,1,1,1,1,1,1,0
0.030917000,0,0,0,0,0,0,0,0,0,0,0,0
0.030922000,0,0,0,0,0,1,1,1,1,1,1,0
0.031000000,0,0,0,0,0,1,1,1,1,1,1,1
0.031500000,0,0,0,0,0,1,1,1,1,1,1,0
0.031917000,0,0,0,0,0,0,0,0,0,0,0,0
0.031922000,0,0,0,0,0,1,1,1,1,1,1,0
0.032000000,0,0,0,0,0,1,1,1,1,1,1,1
0.032500000,0,0,0,0,0,1,1,1,1,1,1,0
0.032917000,0,0,0,0,0,0,0,0,0,0,0,0
0.032922000,1,0,0,0,0,1,1,1,1,1,1,0
0.033000000,1,0,0,0,0,1,1,1,1,1,1,1
0.033500000,1,0,0,0,0,1,1,1,1,1,1,0
0.033917000,0,0,0,0,0,0,0,0,0,0,0,0
0.033922000,1,1,1,0,0,1,1,1,1,1,1,0
0.034000000,1,1,1,0,0,1,1,1,1,1,1,1
0.034500000,1,1,1,0,0,1,1,1,1,1,1,0
0.034917000,0,0,0,0,0,0,0,0,0,0,0,0
0.034922000,1,0,0,1,1,0,1,1,1,1,1,0
0.035000000,1,0,0,1,1,0,1,1,1,1,1,1
0.035500000,1,0,0,1,1,0,1,1,1,1,1,0
0.035917000,0,0,0,0,0,0,0,0,0,0,0,0
0.035922000,1,0,0,0,0,1,1,1,1,1,1,0
0.036000000,1,0,0,0,0,1,1,1,1,1,1,1
0.036500000,1,0,0,0,0,1,1,1,1,1,1,0
0.036917000,0,0,0,0,0,0,0,0,0,0,0,0
0.036922000,0,1,0,1,1,0,1,1,1,1,1,0
0.037000000,0,1,0,1,1,0,1,1,1,1,1,1
0.037500000,0,1,0,1,1,0,1,1,1,1,1,0
0.037917000,0,0,0,0,0,0,0,0,0,0,0,0
0.037922000,0,1,0,0,0,1,1,1,1,1,1,0
0.038000000,0,1,0,0,0,1,1,1,1,1,1,1
0.038500000,0,1,0,0,0,1,1,1,1,1,1,0
0.038917000,0,0,0,0,0,0,0,0,0,0,0,0
0.038922000,0,0,0,0,0,1,1,1,1,1,1,0
0.039000000,0,0,0,0,0,1,1,1,1,1,1,1
0.039500000,0,0,0,0,0,1,1,1,1,1,1,0
0.039917000,0,0,0,0,0,0,0,0,0,0,0,0
0.039922000,1,0,1,0,0,1,1,1,1,1,1,0
0.040000000,1,0,1,0,0,1,1,1,1,1,1,1
0.040500000,1,0,1,0,0,1,1,1,1,1,1,0
0.040917000,0,0,0,0,0,0,0,0,0,0,0,0
0.040922000,1,1,0,0,0,1,1,1,1,1,1,0
0.041000000,1,1,0,0,0,1,1,1,1,1,1,1
0.041500000,1,1,0,0,0,1,1,1,1,1,1,0
0.041917000,0,0,0,0,0,0,0,0,0,0,0,0
0.041922000,1,1,0,0,0,1,1,1,1,1,1,0
0.042000000,1,1,0,0,0,1,1,1,1,1,1,1
0.042500000,1,1,0,0,0,1,1,1,1,1,1,0
0.042917000,0,0,0,0,0,0,0,0,0,0,0,0
0.042922000,1,1,0,0,0,1,1,1,1,1,1,0
0.043000000,1,1,0,0,0,1,1,1,1,1,1,1
0.043500000,1,1,0,0,0,1,1,1,1,1,1,0
0.043917000,0,0,0,0,0,0,0,0,0,0,0,0
0.043922000,1,0,0,0,0,1,1,1,1,1,1,0
0.044000000,1,0,0,0,0,1,1,1,1,1,1,1
0.044500000,1,0,0,0,0,1,1,1,1,1,1,0
0.044917000,0,0,0,0,0,0,0,0,0,0,0,0
0.044922000,0,1,0,1,1,0,1,1,1,1,1,0
0.045000000,0,1,0,1,1,0,1,1,1,1,1,1
0.045500000,0,1,0,1,1,0,1,1,1,1,1,0
0.045917000,0,0,0,0,0,0,0,0,0,0,0,0
0.045922000,1,1,0,0,0,1,1,1,1,1,1,0
0.046000000,1,1,0,0,0,1,1,1,1,1,1,1
0.046500000,1,1,0,0,0,1,1,1,1,1,1,0
0.046917000,0,0,0,0,0,0,0,0,0,0,0,0
0.046922000,0,1,0,0,0,1,1,1,1,1,1,0
0.047000000,0,1,0,0,0,1,1,1,1,1,1,1
0.047500000,0,1,0,0,0,1,1,1,1,1,1,0
0.047917000,0,0,0,0,0,0,0,0,0,0,0,0
0.047922000,0,0,0,0,0,1,1,1,1,1,1,0
0.048000000,0,0,0,0,0,1,1,1,1,1,1,1
0.048500000,0,0,0,0,0,1,1,1,1,1,1,0
0.048917000,0,0,0,0,0,0,0,0,0,0,0,0
0.048922000,0,0,0,0,0,1,1,1,1,1,1,0
0.049000000,0,0,0,0,0,1,1,1,1,1,1,1
0.049500000,0,0,0,0,0,1,1,1,1,1,1,0
0.049917000,0,0,0,0,0,0,0,0,0,0,0,0
0.049922000,0,1,0,1,1,0,1,1,1,1,1,0
0.050000000,0,1,0,1,1,0,1,1,1,1,1,1
0.050500000,0,1,0,1,1,0,1,1,1,1,1,0
0.050917000,0,0,0,0,0,0,0,0,0,0,0,0
0.050922000,0,1,0,0,0,1,1,1,1,1,1,0
0.051000000,0,1,0,0,0,1,1,1,1,1,1,1
0.051500000,0,1,0,0,0,1,1,1,1,1,1,0
0.051917000,0,0,0,0,0,0,0,0,0,0,0,0
0.051922000,0,1,1,0,0,1,1,1,1,1,1,0
0.052000000,0,1,1,0,0,1,1,1,1,1,1,1
0.052500000,0,1,1,0,0,1,1,1,1,1,1,0
0.052917000,0,0,0,0,0,0,0,0,0,0,0,0
0.052922000,0,0,0,1,1,0,1,1,1,1,1,0
0.053000000,0,0,0,1,1,0,1,1,1,1,1,1
0.053500000,0,0,0,1,1,0,1,1,1,1,1,0
0.053917000,0,0,0,0,0,0,0,0,0,0,0,0
0.053922000,1,0,0,0,0,1,1,1,1,1,1,0
0.054000000,1,0,0,0,0,1,1,1,1,1,1,1
0.054500000,1,0,0,0,0,1,1,1,1,1,1,0
0.054917000,0,0,0,0,0,0,0,0,0,0,0,0
0.054922000,1,1,0,0,0,1,1,1,1,1,1,0
0.055000000,1,1,0,0,0,1,1,1,1,1,1,1
0.055500000,1,1,0,0,0,1,1,1,1,1,1,0
0.055917000,0,0,0,0,0,0,0,0,0,0,0,0
0.055922000,0,0,1,0,0,1,1,1,1,1,1,0
0.056000000,0,0,1,0,0,1,1,1,1,1,1,1
0.056500000,0,0,1,0,0,1,1,1,1,1,1,0
0.056917000,0,0,0,0,0,0,0,0,0,0,0,0
0.056922000,1,1,0,1,1,0,1,1,1,1,1,0
0.057000000,1,1,0,1,1,0,1,1,1,1,1,1
0.057500000,1,1,0,1,1,0,1,1,1,1,1,0
0.057917000,0,0,0,0,0,0,0,0,0,0,0,0
0.057922000,0,0,0,1,0,1,1,1,1,1,1,0
0.058000000,0,0,0,1,0,1,1,1,1,1,1,1
0.058500000,0,0,0,1,0,1,1,1,1,1,1,0
0.058917000,0,0,0,0,0,0,0,0,0,0,0,0
0.058922000,0,1,0,1,1,0,1,1,1,1,1,0
0.059000000,0,1,0,1,1,0,1,1,1,1,1,1
0.059500000,0,1,0,1,1,0,1,1,1,1,1,0
0.059917000,0,0,0,0,0,0,0,0,0,0,0,0
0.059922000,0,1,1,0,0,1,1,1,1,1,1,0
0.060000000,0,1,1,0,0,1,1,1,1,1,1,1
0.060500000,0,1,1,0,0,1,1,1,1,1,1,0
0.060917000,0,0,0,0,0,0,0,0,0,0,0,0
0.060922000,0,0,0,0,0,1,1,1,1,1,1,0
0.061000000,0,0,0,0,0,1,1,1,1,1,1,1
0.061500000,0,0,0,0,0,1,1,1,1,1,1,0
0.061916000,0,0,0,0,0,1,1,1,1,1,0,0
0.061917000,0,0,0,0,0,0,0,0,0,0,0,0
0.061922000,0,0,0,0,0,1,1,1,1,1,1,0
0.062000000,0,0,0,0,0,1,1,1,1,1,1,1
0.062500000,0,0,0,0,0,1,1,1,1,1,1,0
0.062916000,0,0,0,0,0,1,1,1,1,1,0,0
0.062917000,0,0,0,0,0,0,0,0,0,0,0,0
0.062922000,0,1,0,0,0,1,1,1,1,1,1,0
0.063000000,0,1,0,0,0,1,1,1,1,1,1,1
0.063500000,0,1,0,0,0,1,1,1,1,1,1,0
0.063916000,0,1,0,0,0,1,1,1,1,1,0,0
0.063917000,0,0,0,0,0,0,0,0,0,0,0,0
0.063922000,1,0,1,0,0,1,1,1,1,1,1,0
0.064000000,1,0,1,0,0,1,1,1,1,1,1,1
0.064500000,1,0,1,0,0,1,1,1,1,1,1,0
0.064916000,1,0,1,0,0,1,1,1,1,1,0,0
0.064917000,0,0,0,0,0,0,0,0,0,0,0,0
0.064922000,0,0,0,0,0,1,1,1,1,1,1,0
0.065000000,0,0,0,0,0,1,1,1,1,1,1,1
0.065500000,0,0,0,0,0,1,1,1,1,1,1,0
0.065916000,0,0,0,0,0,0,1,1,1,1,0,0
0.065917000,0,0,0,0,0,0,0,0,0,0,0,0
0.065922000,1,1,0,0,0,1,1,1,1,1,1,0
0.066000000,1,1,0,0,0,1,1,1,1,1,1,1
0.066500000,1,1,0,0,0,1,1,1,1,1,1,0
0.066916000,0,0,0,0,0,0,0,0,0,0,0,0
0.066922000,0,0,0,0,0,1,1,1,1,1,1,0
0.067000000,0,0,0,0,0,1,1,1,1,1,1,1
0.067500000,0,0,0,0,0,1,1,1,1,1,1,0
0.067916000,0,0,0,0,0,0,0,0,0,0,0,0
0.067922000,0,0,1,0,0,1,1,1,1,1,1,0
0.068000000,0,0,1,0,0,1,1,1,1,1,1,1
0.068500000,0,0,1,0,0,1,1,1,1,1,1,0
0.068916000,0,0,0,0,0,0,0,0,0,0,0,0
0.068922000,0,0,1,0,0,1,1,1,1,1,1,0
0.069000000,0,0,1,0,0,1,1,1,1,1,1,1
0.069500000,0,0,1,0,0,1,1,1,1,1,1,0
0.069916000,0,0,0,0,0,0,0,0,0,0,0,0
0.069922000,0,0,0,0,0,1,1,1,1,1,1,0
0.070000000,0,0,0,0,0,1,1,1,1,1,1,1
0.070500000,0,0,0,0,0,1,1,1,1,1,1,0
0.070916000,0,0,0,0,0,0,0,0,0,0,0,0
0.070922000,0,0,0,1,1,0,1,1,1,1,1,0
0.071000000,0,0,0,1,1,0,1,1,1,1,1,1
0.071500000,0,0,0,1,1,0,1,1,1,1,1,0
0.071916000,0,0,0,0,0,0,0,0,0,0,0,0
0.071922000,0,0,0,1,1,0,1,1,1,1,1,0
0.072000000,0,0,0,1,1,0,1,1,1,1,1,1
0.072500000,0,0,0,1,1,0,1,1,1,1,1,0
0.072916000,0,0,0,0,0,0,1,0,0,0,0,0
0.072917000,0,0,0,0,0,0,0,0,0,0,0,0
0.072922000,1,1,0,1,1,0,1,1,1,1,1,0
0.073000000,1,1,0,1,1,0,1,1,1,1,1,1
0.073500000,1,1,0,1,1,0,1,1,1,1,1,0
0.073916000,1,1,0,1,1,0,1,1,1,1,0,0
0.073917000,0,0,0,0,0,0,0,0,0,0,0,0
0.073922000,0,0,0,0,0,1,1,1,1,1,1,0
0.074000000,0,0,0,0,0,1,1,1,1,1,1,1
0.074500000,0,0,0,0,0,1,1,1,1,1,1,0
0.074916000,0,0,0,0,0,0,0,0,0,0,0,0
0.074922000,1,0,1,0,0,1,1,1,1,1,1,0
0.075000000,1,0,1,0,0,1,1,1,1,1,1,1
0.075500000,1,0,1,0,0,1,1,1,1,1,1,0
0.075916000,0,0,0,0,0,0,0,0,0,0,0,0
0.075922000,1,0,0,0,0,1,1,1,1,1,1,0
0.076000000,1,0,0,0,0,1,1,1,1,1,1,1
0.076500000,1,0,0,0,0,1,1,1,1,1,1,0
0.076916000,0,0,0,0,0,0,0,0,0,0,0,0
0.076922000,1,0,0,0,0,1,1,1,1,1,1,0
0.077000000,1,0,0,0,0,1,1,1,1,1,1,1
0.077500000,1,0,0,0,0,1,1,1,1,1,1,0
0.077916000,0,0,0,0,0,0,0,0,0,0,0,0
0.077922000,0,0,1,0,0,1,1,1,1,1,1,0
0.078000000,0,0,1,0,0,1,1,1,1,1,1,1
0.078500000,0,0,1,0,0,1,1,1,1,1,1,0
0.078916000,0,0,0,0,0,0,0,0,0,0,0,0
0.078922000,0,0,0,0,0,1,1,1,1,1,1,0
0.079000000,0,0,0,0,0,1,1,1,1,1,1,1
0.079500000,0,0,0,0,0,1,1,1,1,1,1,0
0.079916000,0,0,0,0,0,0,0,0,0,0,0,0
0.079922000,0,1,0,0,0,1,1,1,1,1,1,0
0.080000000,0,1,0,0,0,1,1,1,1,1,1,1
0.080500000,0,1,0,0,0,1,1,1,1,1,1,0
0.080916000,0,0,0,0,0,0,0,0,0,0,0,0
0.080922000,0,0,0,0,0,1,1,1,1,1,1,0
0.081000000,0,0,0,0,0,1,1,1,1,1,1,1
0.081500000,0,0,0,0,0,1,1,1,1,1,1,0
0.081916000,0,0,0,0,0,0,0,0,0,0,0,0
0.081922000,1,0,0,0,0,1,1,1,1,1,1,0
0.082000000,1,0,0,0,0,1,1,1,1,1,1,1
0.082500000,1,0,0,0,0,1,1,1,1,1,1,0
0.082916000,0,0,0,0,0,0,0,0,0,0,0,0
0.082922000,0,0,1,0,0,1,1,1,1,1,1,0
0.083000000,0,0,1,0,0,1,1,1,1,1,1,1
0.083500000,0,0,1,0,0,1,1,1,1,1,1,0
0.083916000,0,0,0,0,0,0,0,0,0,0,0,0
0.083922000,0,0,1,1,1,0,1,1,1,1,1,0
0.084000000,0,0,1,1,1,0,1,1,1,1,1,1
0.084500000,0,0,1,1,1,0,1,1,1,1,1,0
0.084916000,0,0,0,0,0,0,0,0,0,0,0,0
0.084922000,1,0,0,0,0,1,1,1,1,1,1,0
0.085000000,1,0,0,0,0,1,1,1,1,1,1,1
0.085500000,1,0,0,0,0,1,1,1,1,1,1,0
0.085916000,0,0,0,0,0,0,0,0,0,0,0,0
0.085922000,0,1,0,0,0,1,1,1,1,1,1,0
0.086000000,0,1,0,0,0,1,1,1,1,1,1,1
0.086500000,0,1,0,0,0,1,1,1,1,1,1,0
0.086916000,0,0,0,0,0,0,0,0,0,0,0,0
0.086922000,1,1,0,0,0,1,1,1,1,1,1,0
0.087000000,1,1,0,0,0,1,1,1,1,1,1,1
0.087500000,1,1,0,0,0,1,1,1,1,1,1,0
0.087916000,0,0,0,0,0,0,0,0,0,0,0,0
0.087922000,1,0,0,0,0,1,1,1,1,1,1,0
0.088000000,1,0,0,0,0,1,1,1,1,1,1,1
0.088500000,1,0,0,0,0,1,1,1,1,1,1,0
0.088916000,0,0,0,0,0,0,0,0,0,0,0,0
0.088922000,1,1,0,1,1,0,1,1,1,1,1,0
0.089000000,1,1,0,1,1,0,1,1,1,1,1,1
0.089500000,1,1,0,1,1,0,1,1,1,1,1,0
0.089916000,0,0,0,0,0,0,0,0,0,0,0,0
0.089922000,1,1,1,0,0,1,1,1,1,1,1,0
0.090000000,1,1,1,0,0,1,1,1,1,1,1,1
0.090500000,1,1,1,0,0,1,1,1,1,1,1,0
0.090916000,0,0,0,0,0,0,0,0,0,0,0,0
0.090922000,1,0,1,0,0,1,1,1,1,1,1,0
0.091000000,1,0,1,0,0,1,1,1,1,1,1,1
0.091500000,1,0,1,0,0,1,1,1,1,1,1,0
0.091916000,0,0,0,0,0,0,0,0,0,0,0,0
0.091922000,0,1,1,0,0,1,1,1,1,1,1,0
0.092000000,0,1,1,0,0,1,1,1,1,1,1,1
0.092500000,0,1,1,0,0,1,1,1,1,1,1,0
0.092916000,0,0,0,0,0,0,0,0,0,0,0,0
0.092922000,1,0,1,0,0,1,1,1,1,1,1,0
0.093000000,1,0,1,0,0,1,1,1,1,1,1,1
0.093500000,1,0,1,0,0,1,1,1,1,1,1,0
0.093916000,0,0,0,0,0,0,0,0,0,0,0,0
0.093922000,0,0,0,0,0,1,1,1,1,1,1,0
0.094000000,0,0,0,0,0,1,1,1,1,1,1,1
0.094500000,0,0,0,0,0,1,1,1,1,1,1,0
0.094916000,0,0,0,0,0,0,0,0,0,0,0,0
0.094922000,1,0,1,0,0,1,1,1,1,1,1,0
0.095000000,1,0,1,0,0,1,1,1,1,1,1,1
0.095500000,1,0,1,0,0,1,1,1,1,1,1,0
0.095916000,0,0,0,0,0,0,0,0,0,0,0,0
0.095922000,1,0,0,0,0,1,1,1,1,1,1,0
0.096000000,1,0,0,0,0,1,1,1,1,1,1,1
0.096500000,1,0,0,0,0,1,1,1,1,1,1,0
0.096916000,0,0,0,0,0,0,0,0,0,0,0,0
0.096922000,1,0,1,0,0,1,1,1,1,1,1,0
0.097000000,1,0,1,0,0,1,1,1,1,1,1,1
0.097500000,1,0,1,0,0,1,1,1,1,1,1,0
0.097916000,0,0,0,0,0,0,0,0,0,0,0,0
0.097922000,0,0,1,0,0,1,1,1,1,1,1,0
0.098000000,0,0,1,0,0,1,1,1,1,1,1,1
0.098500000,0,0,1,0,0,1,1,1,1,1,1,0
0.098916000,0,0,0,0,0,0,0,0,0,0,0,0
0.098922000,1,0,1,0,0,1,1,1,1,1,1,0
0.099000000,1,0,1,0,0,1,1,1,1,1,1,1
0.099500000,1,0,1,0,0,1,1,1,1,1,1,0
0.099916000,0,0,0,0,0,0,0,0,0,0,0,0
0.099922000,1,1,0,0,0,1,1,1,1,1,1,0
0.100000000,1,1,0,0,0,1,1,1,1,1,1,1
0.100500000,1,1,0,0,0,1,1,1,1,1,1,0
0.100916000,0,0,0,0,0,0,0,0,0,0,0,0
0.100922000,0,0,0,0,0,1,1,1,1,1,1,0
0.101000000,0,0,0,0,0,1,1,1,1,1,1,1
0.101500000,0,0,0,0,0,1,1,1,1,1,1,0
0.101916000,0,0,0,0,0,0,0,0,0,0,0,0
0.101922000,1,0,1,0,0,1,1,1,1,1,1,0
0.102000000,1,0,1,0,0,1,1,1,1,1,1,1
0.102500000,1,0,1,0,0,1,1,1,1,1,1,0
0.102916000,0,0,0,0,0,0,0,0,0,0,0,0
0.102922000,1,1,0,0,0,1,1,1,1,1,1,0
0.103000000,1,1,0,0,0,1,1,1,1,1,1,1
0.103500000,1,1,0,0,0,1,1,1,1,1,1,0
0.103916000,0,0,0,0,0,0,0,0,0,0,0,0
0.103922000,1,0,1,0,0,1,1,1,1,1,1,0
0.103999000,1,0,1,0,0,1,1,1,1,1,1,1
0.104499000,1,0,1,0,0,1,1,1,1,1,1,0
0.104916000,0,0,0,0,0,0,0,0,0,0,0,0
0.104922000,0,0,1,1,1,0,1,1,1,1,1,0
0.104999000,0,0,1,1,1,0,1,1,1,1,1,1
0.105499000,0,0,1,1,1,0,1,1,1,1,1,0
0.105916000,0,0,0,0,0,0,0,0,0,0,0,0
0.105922000,0,0,1,0,0,1,1,1,1,1,1,0
0.105999000,0,0,1,0,0,1,1,1,1,1,1,1
0.106499000,0,0,1,0,0,1,1,1,1,1,1,0
0.106916000,0,0,0,0,0,0,0,0,0,0,0,0
0.106922000,0,1,1,0,0,1,1,1,1,1,1,0
0.106999000,0,1,1,0,0,1,1,1,1,1,1,1
0.107499000,0,1,1,0,0,1,1,1,1,1,1,0
0.107916000,0,0,0,0,0,0,0,0,0,0,0,0
0.107922000,1,0,0,0,0,1,1,1,1,1,1,0
0.107999000,1,0,0,0,0,1,1,1,1,1,1,1
0.108499000,1,0,0,0,0,1,1,1,1,1,1,0
0.108916000,0,0,0,0,0,0,0,0,0,0,0,0
0.108922000,0,0,1,0,0,1,1,1,1,1,1,0
0.108999000,0,0,1,0,0,1,1,1,1,1,1,1
0.109499000,0,0,1,0,0,1,1,1,1,1,1,0
0.109916000,0,0,0,0,0,0,0,0,0,0,0,0
0.109922000,0,0,0,0,0,1,1,1,1,1,1,0
0.109999000,0,0,0,0,0,1,1,1,1,1,1,1
0.110499000,0,0,0,0,0,1,1,1,1,1,1,0
0.110916000,0,0,0,0,0,0,0,0,0,0,0,0
0.110922000,1,1,0,0,0,1,1,1,1,1,1,0
0.110999000,1,1,0,0,0,1,1,1,1,1,1,1
0.111499000,1,1,0,0,0,1,1,1,1,1,1,0
0.111916000,0,0,0,0,0,0,0,0,0,0,0,0
0.111922000,1,1,0,0,0,1,1,1,1,1,1,0
0.111999000,1,1,0,0,0,1,1,1,1,1,1,1
0.112499000,1,1,0,0,0,1,1,1,1,1,1,0
0.112916000,0,0,0,0,0,0,0,0,0,0,0,0
0.112922000,0,0,1,0,0,1,1,1,1,1,1,0
0.112999000,0,0,1,0,0,1,1,1,1,1,1,1
0.113499000,0,0,1,0,0,1,1,1,1,1,1,0
0.113916000,0,0,0,0,0,0,0,0,0,0,0,0
0.113922000,1,1,0,0,0,1,1,1,1,1,1,0
0.113999000,1,1,0,0,0,1,1,1,1,1,1,1
0.114499000,1,1,0,0,0,1,1,1,1,1,1,0
0.114916000,0,0,0,0,0,0,0,0,0,0,0,0
0.114922000,1,0,1,0,0,1,1,1,1,1,1,0
0.114999000,1,0,1,0,0,1,1,1,1,1,1,1
0.115499000,1,0,1,0,0,1,1,1,1,1,1,0
0.115916000,0,0,0,0,0,0,0,0,0,0,0,0
0.115922000,1,0,0,0,0,1,1,1,1,1,1,0
0.115999000,1,0,0,0,0,1,1,1,1,1,1,1
0.116499000,1,0,0,0,0,1,1,1,1,1,1,0
0.116916000,0,0,0,0,0,0,0,0,0,0,0,0
0.116922000,1,1,0,0,0,1,1,1,1,1,1,0
0.116999000,1,1,0,0,0,1,1,1,1,1,1,1
0.117499000,1,1,0,0,0,1,1,1,1,1,1,0
0.117916000,0,0,0,0,0,0,0,0,0,0,0,0
0.117922000,0,1,0,0,0,1,1,1,1,1,1,0
0.117999000,0,1,0,0,0,1,1,1,1,1,1,1
0.118499000,0,1,0,0,0,1,1,1,1,1,1,0
0.118916000,0,0,0,0,0,0,0,0,0,0,0,0
0.118922000,0,1,0,0,0,1,1,1,1,1,1,0
0.118999000,0,1,0,0,0,1,1,1,1,1,1,1
0.119499000,0,1,0,0,0,1,1,1,1,1,1,0
0.119916000,0,0,0,0,0,0,0,0,0,0,0,0
0.119922000,0,1,0,0,0,1,1,1,1,1,1,0
0.119999000,0,1,0,0,0,1,1,1,1,1,1,1
0.120499000,0,1,0,0,0,1,1,1,1,1,1,0
0.120916000,0,0,0,0,0,0,0,0,0,0,0,0
0.120922000,1,1,0,0,0,1,1,1,1,1,1,0
0.120999000,1,1,0,0,0,1,1,1,1,1,1,1
0.121499000,1,1,0,0,0,1,1,1,1,1,1,0
0.121916000,0,0,0,0,0,0,0,0,0,0,0,0
0.121922000,0,0,1,1,1,0,1,1,1,1,1,0
0.121999000,0,0,1,1,1,0,1,1,1,1,1,1
0.122499000,0,0,1,1,1,0,1,1,1,1,1,0
0.122916000,0,0,0,0,0,0,0,0,0,0,0,0
0.122922000,0,0,0,0,0,1,1,1,1,1,1,0
0.122999000,0,0,0,0,0,1,1,1,1,1,1,1
0.123499000,0,0,0,0,0,1,1,1,1,1,1,0
0.123916000,0,0,0,0,0,0,0,0,0,0,0,0
0.123922000,1,1,0,1,1,0,1,1,1,1,1,0
0.123999000,1,1,0,1,1,0,1,1,1,1,1,1
0.124499000,1,1,0,1,1,0,1,1,1,1,1,0
0.124916000,0,0,0,0,0,0,0,0,0,0,0,0
0.124922000,0,1,0,0,0,1,1,1,1,1,1,0
0.124999000,0,1,0,0,0,1,1,1,1,1,1,1
0.125499000,0,1,0,0,0,1,1,1,1,1,1,0
0.125916000,0,0,0,0,0,0,0,0,0,0,0,0
0.125922000,1,1,0,0,0,1,1,1,1,1,1,0
0.125999000,1,1,0,0,0,1,1,1,1,1,1,1
0.126499000,1,1,0,0,0,1,1,1,1,1,1,0
0.126916000,0,0,0,0,0,0,0,0,0,0,0,0
0.126922000,0,0,1,0,0,1,1,1,1,1,1,0
0.126999000,0,0,1,0,0,1,1,1,1,1,1,1
0.127499000,0,0,1,0,0,1,1,1,1,1,1,0
0.127916000,0,0,0,0,0,0,0,0,0,0,0,0
0.127922000,0,1,0,0,0,1,1,1,1,1,1,0
0.127999000,0,1,0,0,0,1,1,1,1,1,1,1
0.128499000,0,1,0,0,0,1,1,1,1,1,1,0
0.128916000,0,0,0,0,0,0,0,0,0,0,0,0
0.128922000,1,1,0,0,0,1,1,1,1,1,1,0
0.128999000,1,1,0,0,0,1,1,1,1,1,1,1
0.129499000,1,1,0,0,0,1,1,1,1,1,1,0
0.129916000,0,0,0,0,0,0,0,0,0,0,0,0
0.129922000,0,0,1,0,0,1,1,1,1,1,1,0
0.129999000,0,0,1,0,0,1,1,1,1,1,1,1
0.130499000,0,0,1,0,0,1,1,1,1,1,1,0
0.130916000,0,0,0,0,0,0,0,0,0,0,0,0
0.130922000,0,0,1,1,1,0,1,1,1,1,1,0
0.130999000,0,0,1,1,1,0,1,1,1,1,1,1
0.131499000,0,0,1,1,1,0,1,1,1,1,1,0
0.131916000,0,0,0,0,0,0,0,0,0,0,0,0
0.131922000,0,0,0,0,0,1,1,1,1,1,1,0
0.131999000,0,0,0,0,0,1,1,1,1,1,1,1
0.132499000,0,0,0,0,0,1,1,1,1,1,1,0
0.132916000,0,0,0,0,0,0,0,0,0,0,0,0
0.132922000,1,0,0,0,0,1,1,1,1,1,1,0
0.132999000,1,0,0,0,0,1,1,1,1,1,1,1
0.133499000,1,0,0,0,0,1,1,1,1,1,1,0
0.133916000,0,0,0,0,0,0,0,0,0,0,0,0
0.133922000,0,0,1,0,0,1,1,1,1,1,1,0
0.133999000,0,0,1,0,0,1,1,1,1,1,1,1
