Time [s],Channel 0,Channel 1,Channel 2,Channel 3,Channel 4,Channel 5,Channel 6,Channel 7,Channel 8,Channel 9,Channel 10,Channel 11
-0.000713000,0,0,0,0,0,0,1,1,0,0,0,1
-0.000500000,0,0,0,0,0,0,1,1,0,0,0,0
-0.000084000,0,0,0,0,0,0,0,0,0,0,0,0
-0.000072000,0,0,0,0,0,0,1,1,0,0,0,0
0.000000000,0,0,0,0,0,0,1,1,0,0,0,1
0.000500000,0,0,0,0,0,0,1,1,0,0,0,0
0.000916000,0,0,0,0,0,0,0,0,0,0,0,0
0.000928000,1,0,1,1,1,1,0,1,0,0,0,0
0.001000000,1,0,1,1,1,1,0,1,0,0,0,1
0.001500000,1,0,1,1,1,1,0,1,0,0,0,0
0.001916000,0,0,0,0,0,0,0,0,0,0,0,0
0.001928000,1,1,1,1,1,1,0,1,0,0,0,0
0.002000000,1,1,1,1,1,1,0,1,0,0,0,1
0.002500000,1,1,1,1,1,1,0,1,0,0,0,0
0.002916000,0,0,0,0,0,0,0,0,0,0,0,0
0.002928000,0,1,1,1,1,1,0,1,0,0,0,0
0.003000000,0,1,1,1,1,1,0,1,0,0,0,1
0.003500000,0,1,1,1,1,1,0,1,0,0,0,0
0.003916000,0,0,0,0,0,0,0,0,0,0,0,0
0.003928000,1,0,1,1,1,1,0,1,0,0,0,0
0.004000000,1,0,1,1,1,1,0,1,0,0,0,1
0.004500000,1,0,1,1,1,1,0,1,0,0,0,0
0.004916000,0,0,0,0,0,0,0,0,0,0,0,0
0.004928000,0,1,1,1,1,1,0,1,0,0,0,0
0.005000000,0,1,1,1,1,1,0,1,0,0,0,1
0.005500000,0,1,1,1,1,1,0,1,0,0,0,0
0.005916000,0,0,0,0,0,0,0,0,0,0,0,0
0.005928000,0,0,0,0,0,0,1,1,0,0,0,0
0.006000000,0,0,0,0,0,0,1,1,0,0,0,1
0.006500000,0,0,0,0,0,0,1,1,0,0,0,0
0.006916000,0,0,0,0,0,0,0,0,0,0,0,0
0.006928000,1,0,0,1,1,1,0,1,0,0,0,0
0.007000000,1,0,0,1,1,1,0,1,0,0,0,1
0.007500000,1,0,0,1,1,1,0,1,0,0,0,0
0.007916000,0,0,0,0,0,0,0,0,0,0,0,0
0.007928000,0,1,0,1,1,1,0,1,0,0,0,0
0.008000000,0,1,0,1,1,1,0,1,0,0,0,1
0.008500000,0,1,0,1,1,1,0,1,0,0,0,0
0.008916000,0,0,0,0,0,0,0,0,0,0,0,0
0.008928000,0,0,0,0,0,0,1,1,0,0,0,0
0.009000000,0,0,0,0,0,0,1,1,0,0,0,1
0.009500000,0,0,0,0,0,0,1,1,0,0,0,0
0.009916000,0,0,0,0,0,0,0,0,0,0,0,0
0.009928000,0,0,1,1,1,1,0,1,0,0,0,0
0.010000000,0,0,1,1,1,1,0,1,0,0,0,1
0.010500000,0,0,1,1,1,1,0,1,0,0,0,0
0.010916000,0,0,0,0,0,0,0,0,0,0,0,0
0.010928000,1,0,0,0,0,0,1,1,0,0,0,0
0.011000000,1,0,0,0,0,0,1,1,0,0,0,1
0.011500000,1,0,0,0,0,0,1,1,0,0,0,0
0.011916000,0,0,0,0,0,0,0,0,0,0,0,0
0.011928000,1,0,0,1,1,1,0,1,0,0,0,0
0.012000000,1,0,0,1,1,1,0,1,0,0,0,1
0.012500000,1,0,0,1,1,1,0,1,0,0,0,0
0.012916000,0,0,0,0,0,0,0,0,0,0,0,0
0.012928000,1,1,1,1,1,1,0,1,0,0,0,0
0.013000000,1,1,1,1,1,1,0,1,0,0,0,1
0.013500000,1,1,1,1,1,1,0,1,0,0,0,0
0.013916000,0,0,0,0,0,0,0,0,0,0,0,0
0.013928000,0,0,1,0,0,0,1,1,0,0,0,0
0.014000000,0,0,1,0,0,0,1,1,0,0,0,1
0.014500000,0,0,1,0,0,0,1,1,0,0,0,0
0.014916000,0,0,0,0,0,0,0,0,0,0,0,0
0.014928000,1,1,1,1,1,1,0,1,0,0,0,0
0.015000000,1,1,1,1,1,1,0,1,0,0,0,1
0.015500000,1,1,1,1,1,1,0,1,0,0,0,0
0.015916000,0,0,0,0,0,0,0,0,0,0,0,0
0.015928000,1,0,1,1,1,1,0,1,0,0,0,0
0.016000000,1,0,1,1,1,1,0,1,0,0,0,1
0.016500000,1,0,1,1,1,1,0,1,0,0,0,0
0.016916000,0,0,0,0,0,0,0,0,0,0,0,0
0.016928000,1,0,1,1,1,1,0,1,0,0,0,0
0.017000000,1,0,1,1,1,1,0,1,0,0,0,1
0.017500000,1,0,1,1,1,1,0,1,0,0,0,0
0.017916000,0,0,0,0,0,0,0,0,0,0,0,0
0.017928000,1,1,1,1,1,1,0,1,0,0,0,0
0.018000000,1,1,1,1,1,1,0,1,0,0,0,1
0.018500000,1,1,1,1,1,1,0,1,0,0,0,0
0.018916000,0,0,0,0,0,0,0,0,0,0,0,0
0.018928000,1,1,1,1,1,1,0,1,0,0,0,0
0.019000000,1,1,1,1,1,1,0,1,0,0,0,1
0.019500000,1,1,1,1,1,1,0,1,0,0,0,0
0.019916000,0,0,0,0,0,0,0,0,0,0,0,0
0.019928000,1,0,1,1,1,1,0,1,0,0,0,0
0.020000000,1,0,1,1,1,1,0,1,0,0,0,1
0.020500000,1,0,1,1,1,1,0,1,0,0,0,0
0.020916000,0,0,0,0,0,0,0,0,0,0,0,0
0.020928000,1,1,1,1,1,1,0,1,0,0,0,0
0.021000000,1,1,1,1,1,1,0,1,0,0,0,1
0.021500000,1,1,1,1,1,1,0,1,0,0,0,0
0.021916000,0,0,0,0,0,0,0,0,0,0,0,0
0.021928000,1,1,1,1,1,1,0,1,0,0,0,0
0.022000000,1,1,1,1,1,1,0,1,0,0,0,1
0.022500000,1,1,1,1,1,1,0,1,0,0,0,0
0.022916000,0,0,0,0,0,0,0,0,0,0,0,0
0.022928000,1,0,0,0,0,0,1,1,0,0,0,0
0.023000000,1,0,0,0,0,0,1,1,0,0,0,1
0.023500000,1,0,0,0,0,0,1,1,0,0,0,0
0.023916000,0,0,0,0,0,0,0,0,0,0,0,0
0.023928000,0,0,1,1,1,1,0,1,0,0,0,0
0.024000000,0,0,1,1,1,1,0,1,0,0,0,1
0.024500000,0,0,1,1,1,1,0,1,0,0,0,0
0.024916000,0,0,0,0,0,0,0,0,0,0,0,0
0.024928000,1,0,0,0,0,0,1,1,0,0,0,0
0.025000000,1,0,0,0,0,0,1,1,0,0,0,1
0.025500000,1,0,0,0,0,0,1,1,0,0,0,0
0.025916000,0,0,0,0,0,0,0,0,0,0,0,0
0.025928000,0,0,0,0,0,0,1,1,0,0,0,0
0.026000000,0,0,0,0,0,0,1,1,0,0,0,1
0.026500000,0,0,0,0,0,0,1,1,0,0,0,0
0.026916000,0,0,0,0,0,0,0,0,0,0,0,0
0.026928000,1,1,1,1,1,1,0,1,0,0,0,0
0.027000000,1,1,1,1,1,1,0,1,0,0,0,1
0.027500000,1,1,1,1,1,1,0,1,0,0,0,0
0.027916000,0,0,0,0,0,0,0,0,0,0,0,0
0.027927000,0,1,1,1,1,1,0,1,0,0,0,0
0.028000000,0,1,1,1,1,1,0,1,0,0,0,1
0.028500000,0,1,1,1,1,1,0,1,0,0,0,0
0.028916000,0,0,0,0,0,0,0,0,0,0,0,0
0.028928000,1,1,1,1,1,1,0,1,0,0,0,0
0.029000000,1,1,1,1,1,1,0,1,0,0,0,1
0.029500000,1,1,1,1,1,1,0,1,0,0,0,0
0.029916000,0,0,0,0,0,0,0,0,0,0,0,0
0.029928000,0,1,1,1,1,1,0,1,0,0,0,0
0.030000000,0,1,1,1,1,1,0,1,0,0,0,1
0.030500000,0,1,1,1,1,1,0,1,0,0,0,0
0.030916000,0,0,0,0,0,0,0,0,0,0,0,0
0.030927000,0,1,1,1,1,1,0,1,0,0,0,0
0.031000000,0,1,1,1,1,1,0,1,0,0,0,1
0.031500000,0,1,1,1,1,1,0,1,0,0,0,0
0.031916000,0,0,0,0,0,0,0,0,0,0,0,0
0.031927000,0,0,0,0,0,0,1,1,0,0,0,0
0.032000000,0,0,0,0,0,0,1,1,0,0,0,1
0.032500000,0,0,0,0,0,0,1,1,0,0,0,0
0.032916000,0,0,0,0,0,0,0,0,0,0,0,0
0.032928000,1,0,1,0,1,1,0,1,0,0,0,0
0.033000000,1,0,1,0,1,1,0,1,0,0,0,1
0.033500000,1,0,1,0,1,1,0,1,0,0,0,0
0.033916000,0,0,0,0,0,0,0,0,0,0,0,0
0.033928000,1,1,1,1,1,1,0,1,0,0,0,0
0.034000000,1,1,1,1,1,1,0,1,0,0,0,1
0.034500000,1,1,1,1,1,1,0,1,0,0,0,0
0.034916000,0,0,0,0,0,0,0,0,0,0,0,0
0.034927000,1,1,1,1,1,1,0,1,0,0,0,0
0.035000000,1,1,1,1,1,1,0,1,0,0,0,1
0.035500000,1,1,1,1,1,1,0,1,0,0,0,0
0.035916000,0,0,0,0,0,0,0,0,0,0,0,0
0.035928000,0,0,1,1,1,1,0,1,0,0,0,0
0.036000000,0,0,1,1,1,1,0,1,0,0,0,1
0.036500000,0,0,1,1,1,1,0,1,0,0,0,0
0.036916000,0,0,0,0,0,0,0,0,0,0,0,0
0.036928000,0,0,1,1,1,1,0,1,0,0,0,0
0.037000000,0,0,1,1,1,1,0,1,0,0,0,1
0.037500000,0,0,1,1,1,1,0,1,0,0,0,0
0.037916000,0,0,0,0,0,0,0,0,0,0,0,0
0.037927000,1,1,1,1,1,1,0,1,0,0,0,0
0.038000000,1,1,1,1,1,1,0,1,0,0,0,1
0.038500000,1,1,1,1,1,1,0,1,0,0,0,0
0.038916000,0,0,0,0,0,0,0,0,0,0,0,0
0.038928000,0,1,0,1,1,1,0,1,0,0,0,0
0.039000000,0,1,0,1,1,1,0,1,0,0,0,1
0.039500000,0,1,0,1,1,1,0,1,0,0,0,0
0.039916000,0,0,0,0,0,0,0,0,0,0,0,0
0.039928000,0,1,1,1,1,1,0,1,0,0,0,0
0.040000000,0,1,1,1,1,1,0,1,0,0,0,1
0.040500000,0,1,1,1,1,1,0,1,0,0,0,0
0.040916000,0,0,0,0,0,0,0,0,0,0,0,0
0.040927000,0,0,0,1,1,1,0,1,0,0,0,0
0.040928000,1,0,1,1,1,1,0,1,0,0,0,0
0.041000000,1,0,1,1,1,1,0,1,0,0,0,1
0.041500000,1,0,1,1,1,1,0,1,0,0,0,0
0.041916000,0,0,0,0,0,0,0,0,0,0,0,0
0.041927000,0,0,0,0,0,0,1,1,0,0,0,0
0.042000000,0,0,0,0,0,0,1,1,0,0,0,1
0.042500000,0,0,0,0,0,0,1,1,0,0,0,0
0.042916000,0,0,0,0,0,0,0,0,0,0,0,0
0.042928000,1,0,0,1,1,1,0,1,0,0,0,0
0.042999000,1,0,0,1,1,1,0,1,0,0,0,1
0.043499000,1,0,0,1,1,1,0,1,0,0,0,0
0.043916000,0,0,0,0,0,0,0,0,0,0,0,0
0.043927000,0,0,0,0,0,0,1,1,0,0,0,0
0.043999000,0,0,0,0,0,0,1,1,0,0,0,1
0.044499000,0,0,0,0,0,0,1,1,0,0,0,0
0.044916000,0,0,0,0,0,0,0,0,0,0,0,0
0.044927000,0,0,0,0,0,0,1,1,0,0,0,0
0.044999000,0,0,0,0,0,0,1,1,0,0,0,1
0.045499000,0,0,0,0,0,0,1,1,0,0,0,0
0.045916000,0,0,0,0,0,0,0,0,0,0,0,0
0.045927000,1,1,1,0,1,1,0,1,0,0,0,0
0.045999000,1,1,1,0,1,1,0,1,0,0,0,1
0.046499000,1,1,1,0,1,1,0,1,0,0,0,0
0.046916000,0,0,0,0,0,0,0,0,0,0,0,0
0.046927000,1,1,1,1,1,1,0,1,0,0,0,0
0.046999000,1,1,1,1,1,1,0,1,0,0,0,1
0.047499000,1,1,1,1,1,1,0,1,0,0,0,0
0.047916000,0,0,0,0,0,0,0,0,0,0,0,0
0.047928000,1,1,0,0,1,1,0,1,0,0,0,0
0.047999000,1,1,0,0,1,1,0,1,0,0,0,1
0.048499000,1,1,0,0,1,1,0,1,0,0,0,0
0.048916000,0,0,0,0,0,0,0,0,0,0,0,0
0.048927000,0,1,0,1,1,1,0,1,0,0,0,0
0.048999000,0,1,0,1,1,1,0,1,0,0,0,1
0.049499000,0,1,0,1,1,1,0,1,0,0,0,0
0.049916000,0,0,0,0,0,0,0,0,0,0,0,0
0.049927000,0,0,0,0,0,0,1,1,0,0,0,0
0.049999000,0,0,0,0,0,0,1,1,0,0,0,1
0.050499000,0,0,0,0,0,0,1,1,0,0,0,0
0.050916000,0,0,0,0,0,0,0,0,0,0,0,0
0.050927000,1,0,0,0,0,0,1,1,0,0,0,0
0.050999000,1,0,0,0,0,0,1,1,0,0,0,1
0.051499000,1,0,0,0,0,0,1,1,0,0,0,0
0.051916000,0,0,0,0,0,0,0,0,0,0,0,0
0.051927000,1,0,0,1,1,1,0,1,0,0,0,0
0.051999000,1,0,0,1,1,1,0,1,0,0,0,1
0.052499000,1,0,0,1,1,1,0,1,0,0,0,0
0.052916000,0,0,0,0,0,0,0,0,0,0,0,0
0.052927000,1,0,0,0,0,0,1,1,0,0,0,0
0.052999000,1,0,0,0,0,0,1,1,0,0,0,1
0.053499000,1,0,0,0,0,0,1,1,0,0,0,0
0.053916000,0,0,0,0,0,0,0,0,0,0,0,0
0.053927000,1,1,1,1,1,1,0,1,0,0,0,0
0.053999000,1,1,1,1,1,1,0,1,0,0,0,1
0.054499000,1,1,1,1,1,1,0,1,0,0,0,0
0.054916000,0,0,0,0,0,0,0,0,0,0,0,0
0.054927000,0,1,1,1,1,1,0,1,0,0,0,0
0.054999000,0,1,1,1,1,1,0,1,0,0,0,1
0.055499000,0,1,1,1,1,1,0,1,0,0,0,0
0.055916000,0,0,0,0,0,0,0,0,0,0,0,0
0.055927000,0,0,0,0,0,0,1,1,0,0,0,0
0.055999000,0,0,0,0,0,0,1,1,0,0,0,1
0.056499000,0,0,0,0,0,0,1,1,0,0,0,0
0.056916000,0,0,0,0,0,0,0,0,0,0,0,0
0.056927000,0,0,0,0,0,0,1,1,0,0,0,0
0.056999000,0,0,0,0,0,0,1,1,0,0,0,1
0.057499000,0,0,0,0,0,0,1,1,0,0,0,0
0.057916000,0,0,0,0,0,0,0,0,0,0,0,0
0.057927000,1,0,1,1,1,1,0,1,0,0,0,0
0.057999000,1,0,1,1,1,1,0,1,0,0,0,1
0.058499000,1,0,1,1,1,1,0,1,0,0,0,0
0.058916000,0,0,0,0,0,0,0,0,0,0,0,0
0.058927000,0,0,0,1,1,1,0,1,0,0,0,0
0.058999000,0,0,0,1,1,1,0,1,0,0,0,1
0.059499000,0,0,0,1,1,1,0,1,0,0,0,0
0.059916000,0,0,0,0,0,0,0,0,0,0,0,0
0.059927000,0,1,1,1,1,1,0,1,0,0,0,0
0.059999000,0,1,1,1,1,1,0,1,0,0,0,1
0.060499000,0,1,1,1,1,1,0,1,0,0,0,0
0.060916000,0,0,0,0,0,0,0,0,0,0,0,0
0.060927000,0,1,1,1,1,1,0,1,0,0,0,0
0.060999000,0,1,1,1,1,1,0,1,0,0,0,1
0.061499000,0,1,1,1,1,1,0,1,0,0,0,0
0.061916000,0,0,0,0,0,0,0,0,0,0,0,0
0.061927000,0,0,1,1,1,1,0,1,0,0,0,0
0.061999000,0,0,1,1,1,1,0,1,0,0,0,1
0.062499000,0,0,1,1,1,1,0,1,0,0,0,0
0.062916000,0,0,0,0,0,0,0,0,0,0,0,0
0.062927000,1,0,1,1,1,1,0,1,0,0,0,0
0.062999000,1,0,1,1,1,1,0,1,0,0,0,1
0.063499000,1,0,1,1,1,1,0,1,0,0,0,0
0.063916000,0,0,0,0,0,0,0,0,0,0,0,0
0.063927000,1,1,1,0,1,1,0,1,0,0,0,0
0.063999000,1,1,1,0,1,1,0,1,0,0,0,1
0.064499000,1,1,1,0,1,1,0,1,0,0,0,0
0.064916000,0,0,0,0,0,0,0,0,0,0,0,0
0.064927000,1,0,1,1,1,1,0,1,0,0,0,0
0.064999000,1,0,1,1,1,1,0,1,0,0,0,1
0.065499000,1,0,1,1,1,1,0,1,0,0,0,0
0.065916000,0,0,0,0,0,0,0,0,0,0,0,0
0.065927000,0,0,0,0,0,0,1,1,0,0,0,0
0.065999000,0,0,0,0,0,0,1,1,0,0,0,1
0.066499000,0,0,0,0,0,0,1,1,0,0,0,0
0.066916000,0,0,0,0,0,0,0,0,0,0,0,0
0.066927000,1,1,1,1,1,1,0,1,0,0,0,0
0.066999000,1,1,1,1,1,1,0,1,0,0,0,1
0.067499000,1,1,1,1,1,1,0,1,0,0,0,0
0.067916000,0,0,0,0,0,0,0,0,0,0,0,0
0.067927000,1,1,1,1,1,1,0,1,0,0,0,0
0.067999000,1,1,1,1,1,1,0,1,0,0,0,1
0.068499000,1,1,1,1,1,1,0,1,0,0,0,0
0.068916000,0,0,0,0,0,0,0,0,0,0,0,0
0.068927000,1,1,0,1,1,1,0,1,0,0,0,0
0.068999000,1,1,0,1,1,1,0,1,0,0,0,1
0.069499000,1,1,0,1,1,1,0,1,0,0,0,0
0.069916000,0,0,0,0,0,0,0,0,0,0,0,0
0.069927000,1,1,1,1,1,1,0,1,0,0,0,0
0.069999000,1,1,1,1,1,1,0,1,0,0,0,1
0.070499000,1,1,1,1,1,1,0,1,0,0,0,0
0.070916000,0,0,0,0,0,0,0,0,0,0,0,0
0.070927000,1,0,0,0,0,0,1,1,0,0,0,0
0.070999000,1,0,0,0,0,0,1,1,0,0,0,1
0.071499000,1,0,0,0,0,0,1,1,0,0,0,0
0.071916000,0,0,0,0,0,0,0,0,0,0,0,0
0.071927000,1,0,0,1,1,1,0,1,0,0,0,0
0.071999000,1,0,0,1,1,1,0,1,0,0,0,1
0.072499000,1,0,0,1,1,1,0,1,0,0,0,0
0.072916000,0,0,0,0,0,0,0,0,0,0,0,0
0.072927000,1,1,1,1,1,1,0,1,0,0,0,0
0.072999000,1,1,1,1,1,1,0,1,0,0,0,1
0.073499000,1,1,1,1,1,1,0,1,0,0,0,0
0.073916000,0,0,0,0,0,0,0,0,0,0,0,0
0.073927000,1,1,1,1,1,1,0,1,0,0,0,0
0.073999000,1,1,1,1,1,1,0,1,0,0,0,1
0.074499000,1,1,1,1,1,1,0,1,0,0,0,0
0.074916000,0,0,0,0,0,0,0,0,0,0,0,0
0.074927000,0,0,0,0,0,0,1,1,0,0,0,0
0.074999000,0,0,0,0,0,0,1,1,0,0,0,1
0.075499000,0,0,0,0,0,0,1,1,0,0,0,0
0.075916000,0,0,0,0,0,0,0,0,0,0,0,0
0.075927000,1,1,1,1,1,1,0,1,0,0,0,0
0.075999000,1,1,1,1,1,1,0,1,0,0,0,1
0.076499000,1,1,1,1,1,1,0,1,0,0,0,0
0.076916000,0,0,0,0,0,0,0,0,0,0,0,0
0.076927000,0,0,1,1,1,1,0,1,0,0,0,0
0.076999000,0,0,1,1,1,1,0,1,0,0,0,1
0.077499000,0,0,1,1,1,1,0,1,0,0,0,0
0.077916000,0,0,0,0,0,0,0,0,0,0,0,0
0.077927000,1,1,1,1,1,1,0,1,0,0,0,0
0.077999000,1,1,1,1,1,1,0,1,0,0,0,1
0.078499000,1,1,1,1,1,1,0,1,0,0,0,0
0.078916000,0,0,0,0,0,0,0,0,0,0,0,0
0.078927000,1,1,1,1,1,1,0,1,0,0,0,0
0.078999000,1,1,1,1,1,1,0,1,0,0,0,1
0.079499000,1,1,1,1,1,1,0,1,0,0,0,0
0.079916000,0,0,0,0,0,0,0,0,0,0,0,0
0.079927000,1,1,1,1,1,1,0,1,0,0,0,0
0.079999000,1,1,1,1,1,1,0,1,0,0,0,1
0.080499000,1,1,1,1,1,1,0,1,0,0,0,0
0.080916000,0,0,0,0,0,0,0,0,0,0,0,0
0.080927000,1,1,0,1,1,1,0,1,0,0,0,0
0.080999000,1,1,0,1,1,1,0,1,0,0,0,1
0.081499000,1,1,0,1,1,1,0,1,0,0,0,0
0.081916000,0,0,0,0,0,0,0,0,0,0,0,0
0.081927000,0,0,1,1,1,1,0,1,0,0,0,0
0.081999000,0,0,1,1,1,1,0,1,0,0,0,1
0.082499000,0,0,1,1,1,1,0,1,0,0,0,0
0.082916000,0,0,0,0,0,0,0,0,0,0,0,0
0.082927000,1,1,1,1,1,1,0,1,0,0,0,0
0.082999000,1,1,1,1,1,1,0,1,0,0,0,1
0.083499000,1,1,1,1,1,1,0,1,0,0,0,0
0.083916000,0,0,0,0,0,0,0,0,0,0,0,0
0.083927000,0,0,1,1,1,1,0,1,0,0,0,0
0.083999000,0,0,1,1,1,1,0,1,0,0,0,1
0.084499000,0,0,1,1,1,1,0,1,0,0,0,0
0.084916000,0,0,0,0,0,0,0,0,0,0,0,0
0.084927000,0,1,1,1,1,1,0,1,0,0,0,0
0.084999000,0,1,1,1,1,1,0,1,0,0,0,1
0.085499000,0,1,1,1,1,1,0,1,0,0,0,0
0.085916000,0,0,0,0,0,0,0,0,0,0,0,0
0.085927000,1,0,0,0,0,0,1,1,0,0,0,0
0.085999000,1,0,0,0,0,0,1,1,0,0,0,1
0.086499000,1,0,0,0,0,0,1,1,0,0,0,0
0.086916000,0,0,0,0,0,0,0,0,0,0,0,0
0.086927000,1,1,1,0,1,1,0,1,0,0,0,0
0.086999000,1,1,1,0,1,1,0,1,0,0,0,1
0.087499000,1,1,1,0,1,1,0,1,0,0,0,0
0.087916000,0,0,0,0,0,0,0,0,0,0,0,0
0.087927000,0,0,1,0,0,0,1,1,0,0,0,0
0.087999000,0,0,1,0,0,0,1,1,0,0,0,1
0.088499000,0,0,1,0,0,0,1,1,0,0,0,0
0.088916000,0,0,0,0,0,0,0,0,0,0,0,0
0.088927000,0,1,1,1,1,1,0,1,0,0,0,0
0.088999000,0,1,1,1,1,1,0,1,0,0,0,1
0.089499000,0,1,1,1,1,1,0,1,0,0,0,0
0.089916000,0,0,0,0,0,0,0,0,0,0,0,0
0.089927000,0,1,1,1,1,1,0,1,0,0,0,0
0.089999000,0,1,1,1,1,1,0,1,0,0,0,1
0.090499000,0,1,1,1,1,1,0,1,0,0,0,0
0.090916000,0,0,0,0,0,0,0,0,0,0,0,0
0.090927000,0,0,0,1,1,1,0,1,0,0,0,0
0.090999000,0,0,0,1,1,1,0,1,0,0,0,1
0.091499000,0,0,0,1,1,1,0,1,0,0,0,0
0.091916000,0,0,0,0,0,0,0,0,0,0,0,0
0.091927000,1,1,1,1,1,1,0,1,0,0,0,0
0.091999000,1,1,1,1,1,1,0,1,0,0,0,1
0.092499000,1,1,1,1,1,1,0,1,0,0,0,0
0.092916000,0,0,0,0,0,0,0,0,0,0,0,0
0.092927000,1,0,1,1,1,1,0,1,0,0,0,0
0.092999000,1,0,1,1,1,1,0,1,0,0,0,1
0.093499000,1,0,1,1,1,1,0,1,0,0,0,0
0.093916000,0,0,0,0,0,0,0,0,0,0,0,0
0.093927000,0,1,0,1,1,1,0,1,0,0,0,0
0.093999000,0,1,0,1,1,1,0,1,0,0,0,1
0.094499000,0,1,0,1,1,1,0,1,0,0,0,0
0.094916000,0,0,0,0,0,0,0,0,0,0,0,0
0.094927000,0,0,0,1,1,1,0,1,0,0,0,0
0.094999000,0,0,0,1,1,1,0,1,0,0,0,1
0.095499000,0,0,0,1,1,1,0,1,0,0,0,0
0.095916000,0,0,0,0,0,0,0,0,0,0,0,0
0.095927000,1,0,0,1,1,1,0,1,0,0,0,0
0.095999000,1,0,0,1,1,1,0,1,0,0,0,1
0.096499000,1,0,0,1,1,1,0,1,0,0,0,0
0.096916000,0,0,0,0,0,0,0,0,0,0,0,0
0.096927000,1,1,1,1,1,1,0,1,0,0,0,0
0.096999000,1,1,1,1,1,1,0,1,0,0,0,1
0.097499000,1,1,1,1,1,1,0,1,0,0,0,0
0.097916000,0,0,0,0,0,0,0,0,0,0,0,0
0.097927000,1,1,1,1,1,1,0,1,0,0,0,0
0.097999000,1,1,1,1,1,1,0,1,0,0,0,1
0.098499000,1,1,1,1,1,1,0,1,0,0,0,0
0.098916000,0,0,0,0,0,0,0,0,0,0,0,0
0.098927000,1,1,1,0,1,1,0,1,0,0,0,0
0.098999000,1,1,1,0,1,1,0,1,0,0,0,1
0.099499000,1,1,1,0,1,1,0,1,0,0,0,0
0.099916000,0,0,0,0,0,0,0,0,0,0,0,0
0.099927000,0,1,0,1,1,1,0,1,0,0,0,0
0.099999000,0,1,0,1,1,1,0,1,0,0,0,1
0.100499000,0,1,0,1,1,1,0,1,0,0,0,0
0.100916000,0,0,0,0,0,0,0,0,0,0,0,0
0.100927000,1,1,1,1,1,1,0,1,0,0,0,0
0.100999000,1,1,1,1,1,1,0,1,0,0,0,1
0.101499000,1,1,1,1,1,1,0,1,0,0,0,0
0.101916000,0,0,0,0,0,0,0,0,0,0,0,0
0.101927000,0,1,0,1,1,1,0,1,0,0,0,0
0.101999000,0,1,0,1,1,1,0,1,0,0,0,1
0.102499000,0,1,0,1,1,1,0,1,0,0,0,0
0.102916000,0,0,0,0,0,0,0,0,0,0,0,0
0.102927000,1,0,0,0,0,0,1,1,0,0,0,0
0.102999000,1,0,0,0,0,0,1,1,0,0,0,1
0.103499000,1,0,0,0,0,0,1,1,0,0,0,0
0.103916000,0,0,0,0,0,0,0,0,0,0,0,0
0.103927000,0,0,0,1,1,1,0,1,0,0,0,0
0.103999000,0,0,0,1,1,1,0,1,0,0,0,1
0.104499000,0,0,0,1,1,1,0,1,0,0,0,0
0.104916000,0,0,0,0,0,0,0,0,0,0,0,0
0.104927000,1,0,1,1,1,1,0,1,0,0,0,0
0.104999000,1,0,1,1,1,1,0,1,0,0,0,1
0.105499000,1,0,1,1,1,1,0,1,0,0,0,0
0.105916000,0,0,0,0,0,0,0,0,0,0,0,0
0.105927000,1,1,1,1,1,1,0,1,0,0,0,0
0.105999000,1,1,1,1,1,1,0,1,0,0,0,1
0.106499000,1,1,1,1,1,1,0,1,0,0,0,0
0.106916000,0,0,0,0,0,0,0,0,0,0,0,0
0.106927000,0,0,0,0,0,0,1,1,0,0,0,0
0.106999000,0,0,0,0,0,0,1,1,0,0,0,1
0.107499000,0,0,0,0,0,0,1,1,0,0,0,0
0.107916000,0,0,0,0,0,0,0,0,0,0,0,0
0.107927000,0,0,0,0,0,0,1,1,0,0,0,0
0.107999000,0,0,0,0,0,0,1,1,0,0,0,1
0.108499000,0,0,0,0,0,0,1,1,0,0,0,0
0.108916000,0,0,0,0,0,0,0,0,0,0,0,0
0.108927000,1,1,1,1,1,1,0,1,0,0,0,0
0.108999000,1,1,1,1,1,1,0,1,0,0,0,1
0.109499000,1,1,1,1,1,1,0,1,0,0,0,0
0.109916000,0,0,0,0,0,0,0,0,0,0,0,0
0.109927000,1,1,1,0,1,1,0,1,0,0,0,0
0.109999000,1,1,1,0,1,1,0,1,0,0,0,1
0.110499000,1,1,1,0,1,1,0,1,0,0,0,0
0.110916000,0,0,0,0,0,0,0,0,0,0,0,0
0.110927000,0,1,1,1,1,1,0,1,0,0,0,0
0.110999000,0,1,1,1,1,1,0,1,0,0,0,1
0.111499000,0,1,1,1,1,1,0,1,0,0,0,0
0.111916000,0,0,0,0,0,0,0,0,0,0,0,0
0.111927000,0,0,0,0,0,0,1,1,0,0,0,0
0.111999000,0,0,0,0,0,0,1,1,0,0,0,1
0.112499000,0,0,0,0,0,0,1,1,0,0,0,0
0.112916000,0,0,0,0,0,0,0,0,0,0,0,0
0.112927000,0,1,1,1,1,1,0,1,0,0,0,0
0.112999000,0,1,1,1,1,1,0,1,0,0,0,1
0.113499000,0,1,1,1,1,1,0,1,0,0,0,0
0.113916000,0,0,0,0,0,0,0,0,0,0,0,0
0.113927000,1,1,1,1,1,1,0,1,0,0,0,0
0.113999000,1,1,1,1,1,1,0,1,0,0,0,1
0.114499000,1,1,1,1,1,1,0,1,0,0,0,0
0.114916000,0,0,0,0,0,0,0,0,0,0,0,0
0.114927000,0,0,1,1,1,1,0,1,0,0,0,0
0.114999000,0,0,1,1,1,1,0,1,0,0,0,1
0.115499000,0,0,1,1,1,1,0,1,0,0,0,0
0.115916000,0,0,0,0,0,0,0,0,0,0,0,0
0.115927000,0,1,1,1,1,1,0,1,0,0,0,0
0.115999000,0,1,1,1,1,1,0,1,0,0,0,1
0.116499000,0,1,1,1,1,1,0,1,0,0,0,0
0.116916000,0,0,0,0,0,0,0,0,0,0,0,0
0.116927000,1,1,1,1,1,1,0,1,0,0,0,0
0.116999000,1,1,1,1,1,1,0,1,0,0,0,1
0.117499000,1,1,1,1,1,1,0,1,0,0,0,0
0.117916000,0,0,0,0,0,0,0,0,0,0,0,0
0.117927000,1,1,1,1,1,1,0,1,0,0,0,0
0.117999000,1,1,1,1,1,1,0,1,0,0,0,1
0.118499000,1,1,1,1,1,1,0,1,0,0,0,0
0.118916000,0,0,0,0,0,0,0,0,0,0,0,0
0.118927000,0,0,0,0,0,0,1,1,0,0,0,0
0.118999000,0,0,0,0,0,0,1,1,0,0,0,1
0.119499000,0,0,0,0,0,0,1,1,0,0,0,0
0.119916000,0,0,0,0,0,0,0,0,0,0,0,0
0.119927000,1,0,0,1,1,1,0,1,0,0,0,0
0.119999000,1,0,0,1,1,1,0,1,0,0,0,1
0.120499000,1,0,0,1,1,1,0,1,0,0,0,0
0.120916000,0,0,0,0,0,0,0,0,0,0,0,0
0.120927000,1,1,1,0,1,1,0,1,0,0,0,0
0.120999000,1,1,1,0,1,1,0,1,0,0,0,1
0.121499000,1,1,1,0,1,1,0,1,0,0,0,0
0.121916000,0,0,0,0,0,0,0,0,0,0,0,0
0.121927000,0,1,1,1,1,1,0,1,0,0,0,0
0.121999000,0,1,1,1,1,1,0,1,0,0,0,1
0.122499000,0,1,1,1,1,1,0,1,0,0,0,0
0.122916000,0,0,0,0,0,0,0,0,0,0,0,0
0.122927000,1,1,0,1,1,1,0,1,0,0,0,0
0.122999000,1,1,0,1,1,1,0,1,0,0,0,1
0.123499000,1,1,0,1,1,1,0,1,0,0,0,0
0.123916000,0,0,0,0,0,0,0,0,0,0,0,0
0.123927000,1,0,0,0,0,0,1,1,0,0,0,0
0.123999000,1,0,0,0,0,0,1,1,0,0,0,1
0.124499000,1,0,0,0,0,0,1,1,0,0,0,0
0.124916000,0,0,0,0,0,0,0,0,0,0,0,0
0.124927000,1,0,0,1,1,1,0,1,0,0,0,0
0.124999000,1,0,0,1,1,1,0,1,0,0,0,1
0.125499000,1,0,0,1,1,1,0,1,0,0,0,0
0.125916000,0,0,0,0,0,0,0,0,0,0,0,0
0.125927000,1,1,1,1,1,1,0,1,0,0,0,0
0.125999000,1,1,1,1,1,1,0,1,0,0,0,1
0.126499000,1,1,1,1,1,1,0,1,0,0,0,0
0.126916000,0,0,0,0,0,0,0,0,0,0,0,0
0.126927000,1,1,0,1,1,1,0,1,0,0,0,0
0.126999000,1,1,0,1,1,1,0,1,0,0,0,1
0.127499000,1,1,0,1,1,1,0,1,0,0,0,0
0.127916000,0,0,0,0,0,0,0,0,0,0,0,0
0.127927000,1,1,1,1,1,1,0,1,0,0,0,0
0.127999000,1,1,1,1,1,1,0,1,0,0,0,1
0.128499000,1,1,1,1,1,1,0,1,0,0,0,0
0.128916000,0,0,0,0,0,0,0,0,0,0,0,0
0.128927000,1,1,1,1,1,1,0,1,0,0,0,0
0.128999000,1,1,1,1,1,1,0,1,0,0,0,1
0.129499000,1,1,1,1,1,1,0,1,0,0,0,0
0.129916000,0,0,0,0,0,0,0,0,0,0,0,0
0.129927000,0,1,0,1,1,1,0,1,0,0,0,0
0.129999000,0,1,0,1,1,1,0,1,0,0,0,1
0.130499000,0,1,0,1,1,1,0,1,0,0,0,0
0.130916000,0,0,0,0,0,0,0,0,0,0,0,0
0.130927000,1,0,1,1,1,1,0,1,0,0,0,0
0.130999000,1,0,1,1,1,1,0,1,0,0,0,1
0.131499000,1,0,1,1,1,1,0,1,0,0,0,0
0.131916000,0,0,0,0,0,0,0,0,0,0,0,0
0.131927000,1,0,1,1,1,1,0,1,0,0,0,0
0.131999000,1,0,1,1,1,1,0,1,0,0,0,1
0.132499000,1,0,1,1,1,1,0,1,0,0,0,0
0.132916000,0,0,0,0,0,0,0,0,0,0,0,0
0.132927000,0,0,0,0,0,0,1,1,0,0,0,0
0.132999000,0,0,0,0,0,0,1,1,0,0,0,1
0.133499000,0,0,0,0,0,0,1,1,0,0,0,0
0.133916000,0,0,0,0,0,0,0,0,0,0,0,0
0.133927000,0,1,1,1,1,1,0,1,0,0,0,0
0.133999000,0,1,1,1,1,1,0,1,0,0,0,1
0.134499000,0,1,1,1,1,1,0,1,0,0,0,0
0.134916000,0,0,0,0,0,0,0,0,0,0,0,0
0.134927000,0,0,0,1,1,1,0,1,0,0,0,0
0.134999000,0,0,0,1,1,1,0,1,0,0,0,1
0.135499000,0,0,0,1,1,1,0,1,0,0,0,0
0.135916000,0,0,0,0,0,0,0,0,0,0,0,0
0.135927000,0,1,0,1,1,1,0,1,0,0,0,0
0.135999000,0,1,0,1,1,1,0,1,0,0,0,1
0.136499000,0,1,0,1,1,1,0,1,0,0,0,0
